# HZ S RI R 50
50000 0.084962568 0.001036533 -0.000157461 1.4934e-05 0 0 0 0
9049500 0.084618824 -0.001883382 -6.7056e-05 7.7174e-05 0 0 0 0
18049000 0.084470728 -0.004129222 -5.8886e-05 2.141e-06 0 0 0 0
27048500 0.08418376 -0.006399371 2.2118e-05 -4.838e-06 0 0 0 0
36048000 0.083999928 -0.008554096 -2.0728e-05 -4.5677e-05 0 0 0 0
45047500 0.083685376 -0.010697184 -1.9482e-05 -3.38e-07 0 0 0 0
54047000 0.083319632 -0.012824584 -6.048e-06 -7.533e-06 0 0 0 0
63046500 0.082910288 -0.014892232 -4.6986e-05 -1.7234e-05 0 0 0 0
72046000 0.082431384 -0.016984396 -4.021e-05 -1.2461e-05 0 0 0 0
81045500 0.081893912 -0.019031368 -6.5065e-05 -2.7962e-05 0 0 0 0
90045000 0.081335704 -0.021079548 -6.3206e-05 -1.4333e-05 0 0 0 0
99044500 0.080719792 -0.023016406 -8.3747e-05 -1.5672e-05 0 0 0 0
108044000 0.0801208 -0.025078812 -7.7103e-05 -6.5806e-05 0 0 0 0
117043500 0.073856816 -0.008240141 0.002103442 -0.000300601 0 0 0 0
126043000 0.08251572 -0.030034718 -4.9808e-05 4.336e-06 0 0 0 0
135042500 0.081642968 -0.031985172 -6.9913e-05 -6.988e-06 0 0 0 0
144042000 0.080694904 -0.033902768 -6.2992e-05 -8.134e-06 0 0 0 0
153041500 0.079738488 -0.03570184 -7.3197e-05 -1.536e-05 0 0 0 0
162041000 0.078748744 -0.037710404 -8.183e-05 -1.5078e-05 0 0 0 0
171040500 0.077610272 -0.039542908 -8.1003e-05 -2.34e-07 0 0 0 0
180040000 0.076493624 -0.04142236 -0.000110715 1.85e-06 0 0 0 0
189039500 0.075343432 -0.043114348 -9.6712e-05 -1.1346e-05 0 0 0 0
198039000 0.074138808 -0.044919516 -0.000140303 5.427e-06 0 0 0 0
207038500 0.072839616 -0.046658428 -0.000141103 -8.38e-06 0 0 0 0
216038000 0.071573768 -0.048218472 -0.000163999 2.8661e-05 0 0 0 0
225037500 0.070216728 -0.049798308 -0.000176388 1.0899e-05 0 0 0 0
234037000 0.06883596 -0.051471912 -0.000173173 6.6062e-05 0 0 0 0
243036500 0.067402928 -0.05280978 -0.000206309 4.3913e-05 0 0 0 0
252036000 0.065995516 -0.054297528 -0.000213277 5.3492e-05 0 0 0 0
261035500 0.064478292 -0.055805652 -0.000223565 9.2848e-05 0 0 0 0
270035000 0.06304542 -0.05690868 -0.000238054 9.1167e-05 0 0 0 0
279034500 0.061513432 -0.058317524 -0.000252156 0.000133926 0 0 0 0
288034000 0.05996676 -0.059486832 -0.000263946 0.000139158 0 0 0 0
297033500 0.064551568 -0.064692168 -0.000144798 0.000157491 0 0 0 0
306033000 0.062795944 -0.065131864 -0.000145238 1.0778e-05 0 0 0 0
315032500 0.061582524 -0.066559248 -7.8586e-05 0.000125486 0 0 0 0
324032000 0.059957276 -0.067143656 2.5442e-05 5.8583e-05 0 0 0 0
333031500 0.058387616 -0.068265584 -9.8659e-05 -3.2138e-05 0 0 0 0
342031000 0.056920188 -0.069155416 -0.000175964 0.000237386 0 0 0 0
351030500 0.055231996 -0.07027464 -0.000163215 0.000128122 0 0 0 0
360030000 0.053810064 -0.070730192 -0.00010861 0.000222598 0 0 0 0
369029500 0.052268128 -0.071652008 -8.4045e-05 0.000240841 0 0 0 0
378029000 0.05080426 -0.07213176 -4.7102e-05 2.2115e-05 0 0 0 0
387028500 0.049151784 -0.072864992 -0.000172273 8.2007e-05 0 0 0 0
396028000 0.047726828 -0.073656424 -7.4171e-05 0.000388396 0 0 0 0
405027500 0.04655346 -0.074778912 9.1388e-05 4.8118e-05 0 0 0 0
414027000 0.045159476 -0.074606408 -0.000106179 1.5335e-05 0 0 0 0
423026500 0.043428956 -0.074822552 2.9533e-05 0.000276685 0 0 0 0
432026000 0.042606968 -0.075368664 6.6941e-05 0.000340196 0 0 0 0
441025500 0.04087722 -0.075751416 -0.000118401 0.000380996 0 0 0 0
450025000 0.039413436 -0.076312864 -3.3561e-05 0.000165475 0 0 0 0
459024500 0.038366848 -0.076302536 -9.532e-06 0.000198026 0 0 0 0
468024000 0.037059972 -0.076035968 5.5868e-05 0.000196562 0 0 0 0
477023500 0.035985572 -0.076659848 2.285e-05 0.000190595 0 0 0 0
486023000 0.034406324 -0.076594344 4.659e-05 5.3865e-05 0 0 0 0
495022500 0.033048778 -0.076548232 1.0048e-05 0.000204302 0 0 0 0
504022000 0.032156374 -0.076727752 4.1617e-05 0.000249987 0 0 0 0
513021500 0.031579472 -0.076674432 0.000182546 5.0487e-05 0 0 0 0
522021000 0.029905758 -0.076383296 2.545e-05 0.000109108 0 0 0 0
531020500 0.029127674 -0.076797392 0.000190168 0.00011104 0 0 0 0
540020000 0.028034436 -0.076617336 0.000183328 0.000117547 0 0 0 0
549019500 0.027060088 -0.076253608 7.9791e-05 0.000137057 0 0 0 0
558019000 0.026062182 -0.076356616 7.0492e-05 0.000100974 0 0 0 0
567018500 0.024982886 -0.07605772 -6.6138e-05 0.000148576 0 0 0 0
576018000 0.024292968 -0.076646072 0.000242491 -7.3181e-05 0 0 0 0
585017500 0.023954482 -0.07576992 0.000195564 0.000106906 0 0 0 0
594017000 0.022819338 -0.076747672 0.000101116 -8.1527e-05 0 0 0 0
603016500 0.021817828 -0.07589344 -4.8963e-05 -4.8553e-05 0 0 0 0
612016000 0.020465802 -0.074978968 -1.3625e-05 -0.000133845 0 0 0 0
621015500 0.020143358 -0.0748054 6.915e-06 -0.00019123 0 0 0 0
630015000 0.01919887 -0.07453628 -0.00013896 -0.000407907 0 0 0 0
639014500 0.018213888 -0.0745418 -1.441e-06 -0.000206264 0 0 0 0
648014000 0.017606164 -0.073910656 -0.00021181 -0.000337765 0 0 0 0
657013500 0.016935494 -0.073431296 -0.000318294 -0.000390435 0 0 0 0
666013000 0.016485272 -0.073897544 -3.9243e-05 -0.000517952 0 0 0 0
675012500 0.015698818 -0.072630816 -0.000222046 -0.000467864 0 0 0 0
684012000 0.015690032 -0.072822584 -6.036e-05 -0.000328942 0 0 0 0
693011500 0.014825416 -0.072091568 -0.000515603 -0.000464623 0 0 0 0
702011000 0.014311742 -0.071528032 -0.000592906 -0.000511692 0 0 0 0
711010500 0.01405076 -0.071450256 -0.000730741 -0.000438631 0 0 0 0
720010000 0.013508642 -0.070964496 -0.000475662 -0.000460589 0 0 0 0
729009500 0.012774934 -0.070352968 -0.000474526 -0.000423026 0 0 0 0
738009000 0.01211972 -0.07018208 -0.000872433 -0.000443595 0 0 0 0
747008500 0.01151618 -0.070110304 -0.00095819 -0.000611414 0 0 0 0
756008000 0.011515516 -0.070011488 -0.001000737 -0.000702519 0 0 0 0
765007500 0.010560784 -0.06910352 -0.001223821 -0.000591509 0 0 0 0
774007000 0.010358398 -0.06849312 -0.001303944 -0.000529287 0 0 0 0
783006500 0.009912356 -0.068482704 -0.001492839 -0.00042958 0 0 0 0
792006000 0.009807998 -0.068072096 -0.001421993 -0.000420181 0 0 0 0
801005500 0.009554994 -0.068564136 -0.001563968 -0.000121449 0 0 0 0
810005000 0.0095849 -0.06658476 -0.001888661 -0.000322559 0 0 0 0
819004500 0.008598066 -0.067024744 -0.002104505 -8.7189e-05 0 0 0 0
828004000 0.00852408 -0.06671898 -0.001943087 -0.00029764 0 0 0 0
837003500 0.008565268 -0.066256076 -0.002083557 -4.6663e-05 0 0 0 0
846003000 0.008586474 -0.067151288 -0.002029545 9.3148e-05 0 0 0 0
855002500 0.008049391 -0.065445252 -0.002225954 0.000282738 0 0 0 0
864002000 0.007915708 -0.065225348 -0.002269499 0.000558067 0 0 0 0
873001500 0.007887182 -0.068358152 -0.001664614 -3.7095e-05 0 0 0 0
882001000 0.006025582 -0.066901832 -0.003006233 0.000556617 0 0 0 0
891000500 0.006272971 -0.064784952 -0.002912046 0.001344781 0 0 0 0
900000000 0.006302783 -0.064038068 -0.003412197 0.001346812 0 0 0 0
