# HZ S RI R 50
50000 0.085019504 0.000950838
9049500 0.084625752 -0.001901586
18049000 0.08444428 -0.004137017
27048500 0.084212456 -0.006369452
36048000 0.083983408 -0.008554074
45047500 0.083626216 -0.010696736
54047000 0.083286312 -0.01280784
63046500 0.082880288 -0.01489435
72046000 0.082416272 -0.016965094
81045500 0.081879568 -0.019003014
90045000 0.081312224 -0.021005488
99044500 0.08068016 -0.023035356
108044000 0.080038048 -0.02499997
117043500 0.070376928 -0.011787586
126043000 0.082465568 -0.029999012
135042500 0.081625456 -0.031931006
144042000 0.080702624 -0.033841472
153041500 0.079720744 -0.035771832
162041000 0.078712296 -0.037681548
171040500 0.0776386 -0.039553572
180040000 0.076487576 -0.04138848
189039500 0.075349016 -0.043126048
198039000 0.074166568 -0.044887192
207038500 0.072878288 -0.046620864
216038000 0.071556872 -0.048232108
225037500 0.070223656 -0.049822988
234037000 0.068826984 -0.051374836
243036500 0.067493104 -0.05283076
252036000 0.065984456 -0.054337704
261035500 0.064561256 -0.055703704
270035000 0.06304034 -0.057060412
279034500 0.061428356 -0.05832678
288034000 0.060003804 -0.05955724
297033500 0.064247236 -0.064749308
306033000 0.062832824 -0.065169536
315032500 0.061511064 -0.066186628
324032000 0.059751024 -0.067303416
333031500 0.058521292 -0.068107328
342031000 0.057041532 -0.069199752
351030500 0.055306104 -0.069833464
360030000 0.053890908 -0.070754688
369029500 0.052306316 -0.071566216
378029000 0.050929904 -0.072215792
387028500 0.049279608 -0.07313764
396028000 0.04812196 -0.073739944
405027500 0.046339824 -0.074643968
414027000 0.04514162 -0.0749646
423026500 0.043343832 -0.075311456
432026000 0.042252844 -0.075569632
441025500 0.04083776 -0.07592388
450025000 0.03940536 -0.076262752
459024500 0.038221732 -0.076153936
468024000 0.036858668 -0.076656664
477023500 0.035355944 -0.076665288
486023000 0.0343021 -0.076822624
495022500 0.033238112 -0.07709352
504022000 0.032155454 -0.0767402
513021500 0.03115025 -0.076843304
522021000 0.029852984 -0.07663488
531020500 0.02907505 -0.076917264
540020000 0.027789158 -0.076648864
549019500 0.026845348 -0.076231136
558019000 0.026259412 -0.076361072
567018500 0.025012984 -0.076747368
576018000 0.024137272 -0.076193504
585017500 0.023382556 -0.076207232
594017000 0.020959186 -0.075072808
603016500 0.02117837 -0.075339856
612016000 0.020403034 -0.07536232
621015500 0.019791458 -0.075052712
630015000 0.019058758 -0.074837512
639014500 0.01826556 -0.0746396
648014000 0.017738852 -0.074013576
657013500 0.01677771 -0.0740738
666013000 0.01601452 -0.073720648
675012500 0.01614981 -0.07352256
684012000 0.014896544 -0.072519136
693011500 0.014190848 -0.072555568
702011000 0.014243426 -0.072338744
711010500 0.013414858 -0.071468072
720010000 0.013210266 -0.071541736
729009500 0.012995132 -0.070760808
738009000 0.012647962 -0.070652712
747008500 0.011349926 -0.070479704
756008000 0.011525386 -0.069988184
765007500 0.010803058 -0.069505032
774007000 0.010243062 -0.069461392
783006500 0.01016105 -0.06848568
792006000 0.009915584 -0.068466512
801005500 0.00960417 -0.068306976
810005000 0.008971454 -0.06785252
819004500 0.008928006 -0.067732528
828004000 0.00900001 -0.066826636
837003500 0.008447824 -0.06678924
846003000 0.008251662 -0.066410436
855002500 0.007390515 -0.066034152
864002000 0.007516099 -0.065733188
873001500 0.007174882 -0.068793912
882001000 0.004863998 -0.067068404
891000500 0.006826601 -0.065127396
900000000 0.006236674 -0.06602674
