# HZ S RI R 50
50000 0.084990104 0.000818973
9049500 0.08460716 -0.001864159
18049000 0.084414312 -0.004158835
27048500 0.084213688 -0.006375026
36048000 0.08395588 -0.008527836
45047500 0.083654504 -0.010691922
54047000 0.083283656 -0.012802418
63046500 0.082886416 -0.014915918
72046000 0.082428712 -0.016941094
81045500 0.081885208 -0.01901862
90045000 0.081350288 -0.021010974
99044500 0.080684 -0.023029386
108044000 0.080043752 -0.025007398
117043500 0.072670992 -0.007970807
126043000 0.082484528 -0.029984198
135042500 0.08157836 -0.031969688
144042000 0.080696176 -0.033867624
153041500 0.079723288 -0.035742164
162041000 0.078700936 -0.03764372
171040500 0.077611776 -0.039543664
180040000 0.076472152 -0.041379908
189039500 0.075325472 -0.0431516
198039000 0.074101744 -0.044921456
207038500 0.072860528 -0.046603428
216038000 0.071538912 -0.04826826
225037500 0.070202864 -0.0498067
234037000 0.068855688 -0.0513801
243036500 0.06740764 -0.052908812
252036000 0.065982424 -0.054277488
261035500 0.06454154 -0.055768076
270035000 0.063037872 -0.057038672
279034500 0.061484072 -0.058358064
288034000 0.059985512 -0.059631472
297033500 0.064249224 -0.064478644
306033000 0.062502192 -0.06517618
315032500 0.061297952 -0.066391224
324032000 0.059833632 -0.06758336
333031500 0.058183804 -0.0680578
342031000 0.057100816 -0.069053192
351030500 0.055344336 -0.070033576
360030000 0.053812692 -0.070649128
369029500 0.052017524 -0.071507224
378029000 0.050438456 -0.072365064
387028500 0.049531536 -0.073054392
396028000 0.04779028 -0.073424528
405027500 0.04634122 -0.074899208
414027000 0.044787808 -0.07494488
423026500 0.043722764 -0.075131
432026000 0.04227456 -0.07575888
441025500 0.04086092 -0.07590128
450025000 0.03939722 -0.07613868
459024500 0.038523784 -0.076217992
468024000 0.037196988 -0.076522336
477023500 0.035953652 -0.076650008
486023000 0.0345861 -0.076632776
495022500 0.033229188 -0.076632184
504022000 0.032314174 -0.076507952
513021500 0.031269476 -0.076560696
522021000 0.03018892 -0.076571352
531020500 0.028886928 -0.07632356
540020000 0.028038434 -0.076395584
549019500 0.02718409 -0.07658616
558019000 0.025763588 -0.076534664
567018500 0.02536341 -0.07643908
576018000 0.024039752 -0.076575472
585017500 0.023273916 -0.075492584
594017000 0.022862094 -0.076568248
603016500 0.021660778 -0.075530112
612016000 0.02081127 -0.075171904
621015500 0.019867376 -0.074755248
630015000 0.019295896 -0.07497548
639014500 0.018173284 -0.074283464
648014000 0.017671048 -0.073656072
657013500 0.016780002 -0.073880032
666013000 0.016685246 -0.073717992
675012500 0.01576456 -0.073296344
684012000 0.015945128 -0.072726192
693011500 0.01526867 -0.072016392
702011000 0.014343246 -0.07175852
711010500 0.014050768 -0.071693488
720010000 0.013716662 -0.071622608
729009500 0.012915354 -0.070920064
738009000 0.012397502 -0.070587648
747008500 0.01200898 -0.070226288
756008000 0.01146536 -0.070165384
765007500 0.011527296 -0.069829448
774007000 0.01080856 -0.068776992
783006500 0.01057379 -0.068624384
792006000 0.010220352 -0.068575632
801005500 0.009361816 -0.06728056
810005000 0.009030438 -0.067656656
819004500 0.008925448 -0.067125072
828004000 0.008815284 -0.067218824
837003500 0.009380314 -0.06680534
846003000 0.008252404 -0.065420776
855002500 0.008274813 -0.065694936
864002000 0.007393767 -0.065219788
873001500 0.005562446 -0.066960172
882001000 0.006323986 -0.067018912
891000500 0.006929834 -0.065526268
900000000 0.005192881 -0.06593974
