# HZ S RI R 50
50000 0.084974048 0.001008956
9049500 0.084623264 -0.001878338
18049000 0.084444504 -0.004164776
27048500 0.08426068 -0.00638391
36048000 0.083957176 -0.008536758
45047500 0.083664192 -0.010698908
54047000 0.083300416 -0.01283114
63046500 0.082880248 -0.014884662
72046000 0.082418512 -0.016948624
81045500 0.081906504 -0.018982156
90045000 0.081294512 -0.02102678
99044500 0.080741448 -0.023013544
108044000 0.080049976 -0.024986868
117043500 0.104701584 0.003586623
126043000 0.082464952 -0.030030714
135042500 0.08160732 -0.031911924
144042000 0.08071172 -0.033902364
153041500 0.079709552 -0.03577438
162041000 0.078694136 -0.037709704
171040500 0.077662864 -0.039535404
180040000 0.076479408 -0.041386108
189039500 0.075311048 -0.043070484
198039000 0.074083768 -0.044888128
207038500 0.072825888 -0.046608528
216038000 0.071531104 -0.048211572
225037500 0.070192192 -0.0497998
234037000 0.068781208 -0.051336996
243036500 0.06742876 -0.052845968
252036000 0.065985024 -0.054314236
261035500 0.064500524 -0.05570226
270035000 0.062998788 -0.057095744
279034500 0.061452204 -0.058345424
288034000 0.059901564 -0.059580276
297033500 0.064523256 -0.0643418
306033000 0.063187092 -0.065133684
315032500 0.061194932 -0.06630534
324032000 0.059600236 -0.067362
333031500 0.05822692 -0.068428848
342031000 0.056763364 -0.0692266
351030500 0.055146744 -0.070159464
360030000 0.0539273 -0.070805424
369029500 0.052062016 -0.071643584
378029000 0.050738608 -0.072119136
387028500 0.049209412 -0.072859136
396028000 0.047816476 -0.073581384
405027500 0.046697188 -0.074626752
414027000 0.045167656 -0.074625792
423026500 0.043672512 -0.075114944
432026000 0.042245092 -0.0754572
441025500 0.041084092 -0.075730872
450025000 0.039713116 -0.07609688
459024500 0.038015792 -0.076104808
468024000 0.03703362 -0.076078968
477023500 0.035788632 -0.076387864
486023000 0.03469722 -0.07627576
495022500 0.03348929 -0.076575912
504022000 0.032520522 -0.076269784
513021500 0.030903442 -0.076793704
522021000 0.030033368 -0.076494992
531020500 0.029052276 -0.076908584
540020000 0.027979662 -0.076435088
549019500 0.026893702 -0.076206848
558019000 0.025889978 -0.07604832
567018500 0.025153728 -0.076371192
576018000 0.024248806 -0.076326968
585017500 0.023433302 -0.076410592
594017000 0.022808272 -0.076667648
603016500 0.021825064 -0.075511944
612016000 0.020398098 -0.075294288
621015500 0.019635432 -0.074725552
630015000 0.019293528 -0.07483004
639014500 0.018264692 -0.074111248
648014000 0.018073918 -0.073814048
657013500 0.0169559 -0.073663216
666013000 0.016724584 -0.07328836
675012500 0.016067132 -0.073130096
684012000 0.01546673 -0.072797792
693011500 0.015091548 -0.071860344
702011000 0.014213852 -0.071618456
711010500 0.01418675 -0.071270624
720010000 0.013516606 -0.070638392
729009500 0.01242273 -0.070447088
738009000 0.012650114 -0.070757176
747008500 0.01206087 -0.070478136
756008000 0.01175765 -0.068596112
765007500 0.011393888 -0.068758656
774007000 0.01087159 -0.066908508
783006500 0.010236334 -0.070001048
792006000 0.01014005 -0.068180848
801005500 0.010770498 -0.066755988
810005000 0.009456448 -0.06732832
819004500 0.008694974 -0.067511808
828004000 0.008956464 -0.065809572
837003500 0.008953178 -0.06599006
846003000 0.008923638 -0.06579692
855002500 0.008124668 -0.067227744
864002000 0.007839746 -0.065738328
873001500 0.007376737 -0.066044412
882001000 0.005725588 -0.066145344
891000500 0.005306921 -0.066638172
900000000 0.005681262 -0.065549964
