# HZ S RI R 50
50000 0.084918416 0.000940526 -0.000119621 9.455e-06 0 0 0 0
9049500 0.084628168 -0.001861313 -2.877e-06 -4.955e-05 0 0 0 0
18049000 0.084446064 -0.004166825 -4.994e-06 4.7413e-05 0 0 0 0
27048500 0.084195552 -0.006360159 -5.397e-06 3.2094e-05 0 0 0 0
36048000 0.083972792 -0.00851019 -5.2542e-05 -6.409e-06 0 0 0 0
45047500 0.083667408 -0.010675758 -3.138e-05 -3.2401e-05 0 0 0 0
54047000 0.083272392 -0.012809478 -4.447e-05 -2.1737e-05 0 0 0 0
63046500 0.082870552 -0.01487023 -3.0717e-05 1.0598e-05 0 0 0 0
72046000 0.08240852 -0.016946292 -4.4274e-05 -3.9011e-05 0 0 0 0
81045500 0.081876176 -0.018967568 -3.5508e-05 -1.3736e-05 0 0 0 0
90045000 0.081306064 -0.021024834 -5.9277e-05 3.042e-06 0 0 0 0
99044500 0.080679464 -0.02304269 -7.3411e-05 -2.3739e-05 0 0 0 0
108044000 0.080039536 -0.025012026 -8.6889e-05 -3.6381e-05 0 0 0 0
117043500 0.462750336 -0.095916048 -0.001777455 -0.001384374 0 0 0 0
126043000 0.082464192 -0.029999178 -7.0712e-05 5.93e-07 0 0 0 0
135042500 0.081620168 -0.03193568 -6.8262e-05 -1.6073e-05 0 0 0 0
144042000 0.080698352 -0.033885996 -6.4118e-05 -1.4416e-05 0 0 0 0
153041500 0.079732352 -0.035752168 -6.9158e-05 -2.701e-06 0 0 0 0
162041000 0.078685352 -0.03759726 -7.1277e-05 -1.2766e-05 0 0 0 0
171040500 0.077609128 -0.039546192 -8.2691e-05 -1.4988e-05 0 0 0 0
180040000 0.07644708 -0.041356916 -0.000110524 -1.0329e-05 0 0 0 0
189039500 0.075351824 -0.043123052 -9.2529e-05 -3.871e-06 0 0 0 0
198039000 0.07413468 -0.04486808 -0.000146359 1.1598e-05 0 0 0 0
207038500 0.072847288 -0.0466012 -0.000146229 8.055e-06 0 0 0 0
216038000 0.07149772 -0.04824118 -0.000161031 2.2256e-05 0 0 0 0
225037500 0.070161488 -0.04981752 -0.000144072 4.1796e-05 0 0 0 0
234037000 0.06884984 -0.05134362 -0.000190843 2.9034e-05 0 0 0 0
243036500 0.06743292 -0.052820732 -0.000200806 4.1231e-05 0 0 0 0
252036000 0.065992692 -0.05426736 -0.000206102 8.7107e-05 0 0 0 0
261035500 0.0645345 -0.055687332 -0.000228657 0.00010115 0 0 0 0
270035000 0.063012488 -0.057071328 -0.000228745 7.4743e-05 0 0 0 0
279034500 0.06150022 -0.058326016 -0.000265929 0.000117831 0 0 0 0
288034000 0.059951644 -0.05956594 -0.000265106 0.000124817 0 0 0 0
297033500 0.06453614 -0.064433992 -0.000144791 0.000102267 0 0 0 0
306033000 0.0626408 -0.06499528 -9.5732e-05 5.7883e-05 0 0 0 0
315032500 0.061225852 -0.066240504 -3.9919e-05 1.027e-05 0 0 0 0
324032000 0.059989992 -0.06722816 -8.1623e-05 6.776e-06 0 0 0 0
333031500 0.058565844 -0.068348376 -0.000127479 0.000159913 0 0 0 0
342031000 0.056844632 -0.069349632 4.6377e-05 -3.5702e-05 0 0 0 0
351030500 0.055353024 -0.070252088 -0.000147137 5.7522e-05 0 0 0 0
360030000 0.05388088 -0.07056604 -9.6968e-05 0.0002011 0 0 0 0
369029500 0.05201986 -0.07148728 -7.0531e-05 0.000106717 0 0 0 0
378029000 0.050729328 -0.072605512 2.6378e-05 0.000105351 0 0 0 0
387028500 0.049120232 -0.072910296 -0.000111954 0.000133276 0 0 0 0
396028000 0.048047676 -0.073619968 -6.07e-05 0.000250451 0 0 0 0
405027500 0.04618024 -0.0748336 -6.684e-06 0.000540251 0 0 0 0
414027000 0.045055324 -0.074838024 -6.6421e-05 0.000129822 0 0 0 0
423026500 0.04347532 -0.075010488 -6.4986e-05 0.000156503 0 0 0 0
432026000 0.042435268 -0.075433896 -1.0142e-05 0.000518621 0 0 0 0
441025500 0.040904136 -0.076162792 0.00010949 0.000274784 0 0 0 0
450025000 0.039200728 -0.075854664 -4.5695e-05 0.000271896 0 0 0 0
459024500 0.038195012 -0.07615228 -0.000220919 0.000319088 0 0 0 0
468024000 0.037052944 -0.076403008 8.5717e-05 0.000158799 0 0 0 0
477023500 0.035866344 -0.0767436 0.000121885 0.000226363 0 0 0 0
486023000 0.034574852 -0.07650376 0.000109871 0.000293088 0 0 0 0
495022500 0.033345398 -0.076798024 -9.0492e-05 0.00026083 0 0 0 0
504022000 0.03226 -0.07658016 0.000192334 8.6507e-05 0 0 0 0
513021500 0.03083676 -0.07702144 0.000158749 0.000231361 0 0 0 0
522021000 0.030082154 -0.07721016 0.000281331 0.000257367 0 0 0 0
531020500 0.029035378 -0.076943064 -5.2625e-05 9.6194e-05 0 0 0 0
540020000 0.027462118 -0.076465248 9.299e-06 -8.77e-07 0 0 0 0
549019500 0.026926884 -0.076523944 -2.6534e-05 0.000153897 0 0 0 0
558019000 0.02593657 -0.076617 6.5208e-05 0.000101245 0 0 0 0
567018500 0.025098552 -0.076581128 0.000226494 -6.2791e-05 0 0 0 0
576018000 0.024020686 -0.075999752 1.6944e-05 -4.4027e-05 0 0 0 0
585017500 0.023459132 -0.076056376 3.3428e-05 0.000131697 0 0 0 0
594017000 0.02242882 -0.077051392 -0.00015503 8.064e-05 0 0 0 0
603016500 0.021141042 -0.075508112 0.00017652 -0.000184556 0 0 0 0
612016000 0.020538508 -0.074979872 -0.000124328 -0.000142487 0 0 0 0
621015500 0.01978432 -0.074737936 -0.000194184 -0.000233772 0 0 0 0
630015000 0.01914517 -0.074830784 -2.2732e-05 -6.6744e-05 0 0 0 0
639014500 0.018405904 -0.074182432 -0.00018921 -0.000275909 0 0 0 0
648014000 0.017832702 -0.074214544 -6.9029e-05 -0.000235474 0 0 0 0
657013500 0.01729396 -0.073730768 -0.000278242 -0.000183433 0 0 0 0
666013000 0.016075998 -0.073664336 -0.000156287 -0.000178626 0 0 0 0
675012500 0.015345594 -0.07303772 -0.000319113 -0.000324095 0 0 0 0
684012000 0.014896358 -0.073134472 -0.000244921 -0.000302714 0 0 0 0
693011500 0.014668112 -0.072454936 -0.0003235 -0.00051157 0 0 0 0
702011000 0.014088732 -0.071661568 -0.00044196 -0.00028403 0 0 0 0
711010500 0.013782078 -0.07170552 -0.00046358 -0.00049604 0 0 0 0
720010000 0.01320136 -0.071480616 -0.000528632 -0.000655207 0 0 0 0
729009500 0.01242554 -0.070902784 -0.000618839 -0.000626889 0 0 0 0
738009000 0.011874544 -0.07044872 -0.00072826 -0.000345686 0 0 0 0
747008500 0.011701616 -0.0700102 -0.000922081 -0.000420533 0 0 0 0
756008000 0.011374004 -0.07016284 -0.000921088 -0.000542839 0 0 0 0
765007500 0.01067673 -0.06965264 -0.001110941 -0.000406454 0 0 0 0
774007000 0.010831386 -0.068818632 -0.001298069 -0.000526808 0 0 0 0
783006500 0.010181308 -0.068744976 -0.001398762 -0.000567214 0 0 0 0
792006000 0.009781622 -0.068280416 -0.001416816 -0.000198441 0 0 0 0
801005500 0.009517076 -0.067747712 -0.001652312 -0.000268668 0 0 0 0
810005000 0.009035626 -0.067617752 -0.001696104 -0.000305325 0 0 0 0
819004500 0.009025298 -0.067375584 -0.002213426 -0.000351364 0 0 0 0
828004000 0.008325848 -0.067487688 -0.001912957 1.16e-06 0 0 0 0
837003500 0.008021439 -0.066382816 -0.002118324 -8.4001e-05 0 0 0 0
846003000 0.008612136 -0.065515956 -0.002120945 0.000324512 0 0 0 0
855002500 0.007854163 -0.065972372 -0.002479123 0.000222974 0 0 0 0
864002000 0.007677186 -0.065135336 -0.002761675 0.000364837 0 0 0 0
873001500 0.006718748 -0.06709096 -0.002308888 0.000800858 0 0 0 0
882001000 0.006094372 -0.065408684 -0.002805388 0.000350106 0 0 0 0
891000500 0.006396704 -0.066525368 -0.002818104 0.000168783 0 0 0 0
900000000 0.00624429 -0.0658464 -0.00349697 0.001682288 0 0 0 0
