# HZ S RI R 50
50000 0.084937576 0.000893886 -6.6429e-05 0.000111276 0 0 0 0
9049500 0.08462028 -0.00188023 4.4227e-05 -7.4888e-05 0 0 0 0
18049000 0.084453744 -0.004159882 -4.1152e-05 5.103e-05 0 0 0 0
27048500 0.084266504 -0.006387051 -2.9059e-05 1.0111e-05 0 0 0 0
36048000 0.083992336 -0.008573072 2.475e-06 -1.1839e-05 0 0 0 0
45047500 0.083676968 -0.010664186 -5.38e-06 -7.081e-06 0 0 0 0
54047000 0.083304232 -0.01282858 -3.1533e-05 -1.8641e-05 0 0 0 0
63046500 0.082868992 -0.014911568 -6.5919e-05 -6.476e-06 0 0 0 0
72046000 0.082399784 -0.01695617 -3.4774e-05 -6.868e-06 0 0 0 0
81045500 0.081882576 -0.01897817 -5.5487e-05 3.367e-06 0 0 0 0
90045000 0.081297608 -0.021066022 -4.5951e-05 -1.068e-05 0 0 0 0
99044500 0.080675368 -0.023025062 -8.0049e-05 -2.4402e-05 0 0 0 0
108044000 0.080056392 -0.025007348 -9.2317e-05 -1.575e-06 0 0 0 0
117043500 0.126191792 0.071520712 -0.001960972 -0.000402442 0 0 0 0
126043000 0.082441448 -0.030003224 -4.767e-05 -3.781e-05 0 0 0 0
135042500 0.08159456 -0.03195022 -7.1432e-05 -2.9581e-05 0 0 0 0
144042000 0.080721872 -0.033871504 -6.4094e-05 -3.2356e-05 0 0 0 0
153041500 0.07973948 -0.035771724 -8.1373e-05 -1.8067e-05 0 0 0 0
162041000 0.07870628 -0.037654432 -5.105e-05 -3.1663e-05 0 0 0 0
171040500 0.077630232 -0.03954678 -9.9434e-05 -1.2766e-05 0 0 0 0
180040000 0.076514432 -0.041405832 -9.7628e-05 -2.6762e-05 0 0 0 0
189039500 0.075329464 -0.043085384 -0.000140976 -1.5876e-05 0 0 0 0
198039000 0.0741252 -0.044909292 -0.000127073 -3.297e-06 0 0 0 0
207038500 0.072872088 -0.046603856 -0.000158458 1.9923e-05 0 0 0 0
216038000 0.071643056 -0.048175656 -0.00016414 2.3905e-05 0 0 0 0
225037500 0.070226664 -0.049825396 -0.000179034 3.1753e-05 0 0 0 0
234037000 0.068815368 -0.051357144 -0.000174793 3.8017e-05 0 0 0 0
243036500 0.067444008 -0.0528924 -0.000206049 5.3879e-05 0 0 0 0
252036000 0.066016616 -0.054276084 -0.000198385 7.2568e-05 0 0 0 0
261035500 0.064555236 -0.055734964 -0.00022159 7.3527e-05 0 0 0 0
270035000 0.06304378 -0.057012412 -0.000235665 8.752e-05 0 0 0 0
279034500 0.061539264 -0.058320744 -0.000268291 0.000110682 0 0 0 0
288034000 0.05995888 -0.0595313 -0.000276643 0.000111486 0 0 0 0
297033500 0.06389842 -0.064224616 -0.000117113 6.7257e-05 0 0 0 0
306033000 0.062526404 -0.06537906 -0.00019549 -5.321e-06 0 0 0 0
315032500 0.06133038 -0.066141264 -5.1353e-05 9.5529e-05 0 0 0 0
324032000 0.059714448 -0.067115888 -0.000129081 0.000180943 0 0 0 0
333031500 0.058375348 -0.068122736 -0.000108665 9.3688e-05 0 0 0 0
342031000 0.056678532 -0.069235696 -0.000144054 0.000131473 0 0 0 0
351030500 0.055345524 -0.070268336 -0.000167478 0.000107333 0 0 0 0
360030000 0.053824708 -0.070798864 -0.000111882 2.5526e-05 0 0 0 0
369029500 0.052221656 -0.071456464 -0.000230178 -5.238e-05 0 0 0 0
378029000 0.050770584 -0.071943536 -0.000146616 0.000202163 0 0 0 0
387028500 0.049096216 -0.072638712 -0.000125717 0.000187627 0 0 0 0
396028000 0.04777506 -0.073449504 -5.5738e-05 0.000163627 0 0 0 0
405027500 0.0463488 -0.074582208 -0.000140635 0.000383918 0 0 0 0
414027000 0.044928764 -0.075115224 8.5407e-05 0.000194361 0 0 0 0
423026500 0.043830972 -0.075168784 -1.803e-05 0.000398412 0 0 0 0
432026000 0.042673612 -0.075449384 -2.1815e-05 0.000262662 0 0 0 0
441025500 0.040862456 -0.07559788 -3.7571e-05 0.000145116 0 0 0 0
450025000 0.039701928 -0.07606328 -8.7296e-05 0.000186429 0 0 0 0
459024500 0.038454972 -0.076282896 0.000109105 0.000254727 0 0 0 0
468024000 0.037224304 -0.076606216 0.000120105 0.000316408 0 0 0 0
477023500 0.035731572 -0.076619144 0.000138022 0.000192156 0 0 0 0
486023000 0.034597412 -0.076817904 8.9462e-05 0.000309353 0 0 0 0
495022500 0.033534878 -0.076646912 8.8587e-05 0.000285251 0 0 0 0
504022000 0.032395438 -0.076683136 -0.000134499 0.000224862 0 0 0 0
513021500 0.031383518 -0.07673332 0.000138273 0.000220581 0 0 0 0
522021000 0.02953442 -0.076423856 7.2597e-05 0.000291415 0 0 0 0
531020500 0.029024882 -0.076403176 4.8282e-05 7.4683e-05 0 0 0 0
540020000 0.028095372 -0.076111392 6.5667e-05 0.000147403 0 0 0 0
549019500 0.026822368 -0.076698384 0.000166627 -0.000125802 0 0 0 0
558019000 0.02599782 -0.07645612 0.000207709 8.7107e-05 0 0 0 0
567018500 0.025209836 -0.07614456 0.000105981 2.4743e-05 0 0 0 0
576018000 0.024417958 -0.075907472 8.874e-06 -5.273e-06 0 0 0 0
585017500 0.022946324 -0.075478128 -1.2628e-05 -0.000128594 0 0 0 0
594017000 0.022532318 -0.076539472 5.1279e-05 0.000219263 0 0 0 0
603016500 0.02189689 -0.075264352 6.1252e-05 -5.5514e-05 0 0 0 0
612016000 0.02082002 -0.07501932 9.5034e-05 5.8796e-05 0 0 0 0
621015500 0.02005265 -0.074726744 2.305e-05 -5.7052e-05 0 0 0 0
630015000 0.019443938 -0.074581688 2.4669e-05 -0.000160546 0 0 0 0
639014500 0.018195622 -0.074339928 -1.6769e-05 -0.000226236 0 0 0 0
648014000 0.017902458 -0.073681048 5.1415e-05 -0.00025575 0 0 0 0
657013500 0.017379812 -0.07349256 -1.2636e-05 -0.000327681 0 0 0 0
666013000 0.016771062 -0.073164416 -0.000295879 -0.000382112 0 0 0 0
675012500 0.015953518 -0.072673632 -0.000167891 -0.000487987 0 0 0 0
684012000 0.01557173 -0.072314184 -9.3222e-05 -0.000402461 0 0 0 0
693011500 0.014749348 -0.072215296 -0.000352794 -0.000587444 0 0 0 0
702011000 0.014183374 -0.072092952 -0.00043293 -0.000477511 0 0 0 0
711010500 0.013955056 -0.071306944 -0.000652772 -0.000435038 0 0 0 0
720010000 0.013093284 -0.0710018 -0.000706481 -0.000733096 0 0 0 0
729009500 0.013035732 -0.071022512 -0.000736269 -0.000507186 0 0 0 0
738009000 0.01219371 -0.070334072 -0.001047318 -0.000324811 0 0 0 0
747008500 0.012094576 -0.069729088 -0.001065101 -0.000416101 0 0 0 0
756008000 0.011451928 -0.069630104 -0.001060753 -0.000575496 0 0 0 0
765007500 0.011061834 -0.069391768 -0.001341616 -0.000213922 0 0 0 0
774007000 0.011046516 -0.069389344 -0.00113554 -0.000331216 0 0 0 0
783006500 0.009992352 -0.068473376 -0.001410111 -0.000175129 0 0 0 0
792006000 0.009660816 -0.06863284 -0.001599603 -0.000196936 0 0 0 0
801005500 0.01012583 -0.068296808 -0.001221515 -3.6523e-05 0 0 0 0
810005000 0.009441226 -0.068079328 -0.001510431 -0.000243871 0 0 0 0
819004500 0.009389664 -0.067279544 -0.001496096 2.702e-06 0 0 0 0
828004000 0.008786516 -0.066876704 -0.001837776 -0.000223137 0 0 0 0
837003500 0.008282328 -0.066938012 -0.002006761 -8.0952e-05 0 0 0 0
846003000 0.008445272 -0.066116684 -0.002200474 0.000185573 0 0 0 0
855002500 0.007583851 -0.06572392 -0.002399654 4.4391e-05 0 0 0 0
864002000 0.007989462 -0.065317452 -0.002248851 0.000447281 0 0 0 0
873001500 0.008165853 -0.06904324 -0.002688155 -0.000227486 0 0 0 0
882001000 0.005783022 -0.06563238 -0.002710136 2.9014e-05 0 0 0 0
891000500 0.00564332 -0.064244108 -0.003289244 0.000460241 0 0 0 0
900000000 0.005970355 -0.065473116 -0.00259869 0.001552715 0 0 0 0
