# HZ S RI R 50
50000 0.084890848 0.000893619
9049500 0.084613768 -0.001866257
18049000 0.084438 -0.004140562
27048500 0.084266688 -0.0063507
36048000 0.083972496 -0.00852762
45047500 0.083618024 -0.010692598
54047000 0.083272952 -0.0128339
63046500 0.082891088 -0.014908886
72046000 0.082402592 -0.016930056
81045500 0.081889384 -0.018999812
90045000 0.08128204 -0.02100286
99044500 0.080701656 -0.023049028
108044000 0.080044944 -0.02500722
117043500 0.07472956 0.009672178
126043000 0.082443376 -0.030008656
135042500 0.081612016 -0.0319485
144042000 0.080702408 -0.033874156
153041500 0.0797386 -0.035756412
162041000 0.078706608 -0.037647428
171040500 0.077580976 -0.039554172
180040000 0.07647376 -0.041328616
189039500 0.075281456 -0.043103404
198039000 0.074136872 -0.044912152
207038500 0.07286744 -0.04655202
216038000 0.071546208 -0.048248088
225037500 0.07023144 -0.049848156
234037000 0.06878396 -0.051362132
243036500 0.067390752 -0.05286228
252036000 0.065983696 -0.054287396
261035500 0.06451664 -0.055666744
270035000 0.063009308 -0.057052208
279034500 0.061504744 -0.058384696
288034000 0.059924756 -0.059553512
297033500 0.06429106 -0.064577684
306033000 0.06292052 -0.06514442
315032500 0.061075692 -0.066135756
324032000 0.059790916 -0.0673966
333031500 0.058269572 -0.068116048
342031000 0.056993336 -0.069242288
351030500 0.055155816 -0.07016392
360030000 0.053908244 -0.070892152
369029500 0.052122416 -0.07173608
378029000 0.051017876 -0.072480096
387028500 0.049396908 -0.07273892
396028000 0.047715148 -0.07363568
405027500 0.046367672 -0.075053632
414027000 0.045124476 -0.074738248
423026500 0.043737096 -0.075147064
432026000 0.042181752 -0.075442592
441025500 0.04085508 -0.075942944
450025000 0.039226536 -0.07614656
459024500 0.03841306 -0.076393216
468024000 0.03693332 -0.076578256
477023500 0.035577244 -0.076516064
486023000 0.034563828 -0.07643932
495022500 0.033265806 -0.076931376
504022000 0.032235772 -0.0766632
513021500 0.031135476 -0.076812128
522021000 0.030144202 -0.07669528
531020500 0.028879744 -0.076291048
540020000 0.027729596 -0.07660764
549019500 0.026752786 -0.076612856
558019000 0.025891036 -0.07635156
567018500 0.025049868 -0.076141464
576018000 0.023954524 -0.075932608
585017500 0.023378128 -0.075795392
594017000 0.022663482 -0.076787736
603016500 0.021269114 -0.075583496
612016000 0.020668298 -0.075037536
621015500 0.019902828 -0.074856784
630015000 0.018901762 -0.074447728
639014500 0.018356462 -0.074284664
648014000 0.017770948 -0.074053744
657013500 0.017040432 -0.074169776
666013000 0.016029634 -0.073261184
675012500 0.01582523 -0.073237016
684012000 0.015355512 -0.072756472
693011500 0.01489115 -0.07260248
702011000 0.013811756 -0.07194324
711010500 0.013864926 -0.071640944
720010000 0.013198276 -0.071239272
729009500 0.012474242 -0.071087864
738009000 0.012322854 -0.07068856
747008500 0.011756284 -0.069820864
756008000 0.0115919 -0.069907056
765007500 0.010519412 -0.069140848
774007000 0.010896074 -0.069332192
783006500 0.010275152 -0.06899792
792006000 0.009556544 -0.068267776
801005500 0.009556578 -0.068434672
810005000 0.009041654 -0.06815452
819004500 0.008502382 -0.06743164
828004000 0.008714182 -0.067131312
837003500 0.008498788 -0.066513828
846003000 0.008302479 -0.066223776
855002500 0.007974449 -0.06594322
864002000 0.007574664 -0.065775944
873001500 0.008761806 -0.06707084
882001000 0.005584999 -0.065268928
891000500 0.006291166 -0.06426882
900000000 0.004516355 -0.064470932
