# HZ S RI R 50
50000 0.084974048 0.001008956 -8.847e-06 4.0998e-05 0 0 0 0
9049500 0.084623264 -0.001878338 -1.1391e-05 2.392e-06 0 0 0 0
18049000 0.084444504 -0.004164776 2.03e-05 -1.068e-06 0 0 0 0
27048500 0.08426068 -0.00638391 -1.5793e-05 -1.1213e-05 0 0 0 0
36048000 0.083957176 -0.008536758 -2.7021e-05 -1.8837e-05 0 0 0 0
45047500 0.083664192 -0.010698908 -3.1209e-05 2.5813e-05 0 0 0 0
54047000 0.083300416 -0.01283114 -2.2889e-05 1.047e-06 0 0 0 0
63046500 0.082880248 -0.014884662 -2.9133e-05 -2.1233e-05 0 0 0 0
72046000 0.082418512 -0.016948624 -6.0449e-05 -1.1813e-05 0 0 0 0
81045500 0.081906504 -0.018982156 -7.0083e-05 -5.741e-06 0 0 0 0
90045000 0.081294512 -0.02102678 -7.0297e-05 -5.662e-06 0 0 0 0
99044500 0.080741448 -0.023013544 -7.3162e-05 -3.0446e-05 0 0 0 0
108044000 0.080049976 -0.024986868 -7.6321e-05 -1.795e-05 0 0 0 0
117043500 0.104701584 0.003586623 0.001104204 -0.002347302 0 0 0 0
126043000 0.082464952 -0.030030714 -4.4388e-05 -3.2683e-05 0 0 0 0
135042500 0.08160732 -0.031911924 -5.8453e-05 -1.935e-05 0 0 0 0
144042000 0.08071172 -0.033902364 -7.3227e-05 -2.507e-05 0 0 0 0
153041500 0.079709552 -0.03577438 -8.1492e-05 2.547e-06 0 0 0 0
162041000 0.078694136 -0.037709704 -7.4275e-05 3.17e-07 0 0 0 0
171040500 0.077662864 -0.039535404 -8.3057e-05 -3.872e-06 0 0 0 0
180040000 0.076479408 -0.041386108 -9.393e-05 -1.9632e-05 0 0 0 0
189039500 0.075311048 -0.043070484 -0.000100973 -2.6651e-05 0 0 0 0
198039000 0.074083768 -0.044888128 -0.000147582 -2.2514e-05 0 0 0 0
207038500 0.072825888 -0.046608528 -0.000120375 -5.98e-06 0 0 0 0
216038000 0.071531104 -0.048211572 -0.000140425 3.1869e-05 0 0 0 0
225037500 0.070192192 -0.0497998 -0.000162703 2.4967e-05 0 0 0 0
234037000 0.068781208 -0.051336996 -0.000200097 2.6185e-05 0 0 0 0
243036500 0.06742876 -0.052845968 -0.000206181 4.2477e-05 0 0 0 0
252036000 0.065985024 -0.054314236 -0.000205392 5.2497e-05 0 0 0 0
261035500 0.064500524 -0.05570226 -0.000235298 8.4993e-05 0 0 0 0
270035000 0.062998788 -0.057095744 -0.000241888 0.000122181 0 0 0 0
279034500 0.061452204 -0.058345424 -0.000245956 0.000105764 0 0 0 0
288034000 0.059901564 -0.059580276 -0.000276226 0.000142575 0 0 0 0
297033500 0.064523256 -0.0643418 -9.0606e-05 0.000193137 0 0 0 0
306033000 0.063187092 -0.065133684 2.4902e-05 0.000202367 0 0 0 0
315032500 0.061194932 -0.06630534 -0.000261425 7.832e-06 0 0 0 0
324032000 0.059600236 -0.067362 -8.7753e-05 -1.2654e-05 0 0 0 0
333031500 0.05822692 -0.068428848 -7.203e-05 -9.236e-05 0 0 0 0
342031000 0.056763364 -0.0692266 -0.000176461 0.000163746 0 0 0 0
351030500 0.055146744 -0.070159464 -8.0694e-05 7.0638e-05 0 0 0 0
360030000 0.0539273 -0.070805424 -5.3213e-05 3.693e-06 0 0 0 0
369029500 0.052062016 -0.071643584 -8.2453e-05 0.000103174 0 0 0 0
378029000 0.050738608 -0.072119136 -0.000110404 0.000145255 0 0 0 0
387028500 0.049209412 -0.072859136 -0.000121291 0.000306247 0 0 0 0
396028000 0.047816476 -0.073581384 1.6743e-05 0.000263961 0 0 0 0
405027500 0.046697188 -0.074626752 -9.5094e-05 0.000294889 0 0 0 0
414027000 0.045167656 -0.074625792 -0.00015477 0.000224526 0 0 0 0
423026500 0.043672512 -0.075114944 1.018e-06 0.000208453 0 0 0 0
432026000 0.042245092 -0.0754572 -1.7626e-05 0.000304416 0 0 0 0
441025500 0.041084092 -0.075730872 -0.000174457 8.2929e-05 0 0 0 0
450025000 0.039713116 -0.07609688 2.5102e-05 0.000272257 0 0 0 0
459024500 0.038015792 -0.076104808 0.000244147 0.00037521 0 0 0 0
468024000 0.03703362 -0.076078968 -2.9746e-05 0.000344649 0 0 0 0
477023500 0.035788632 -0.076387864 0.000104922 0.000290587 0 0 0 0
486023000 0.03469722 -0.07627576 1.3101e-05 0.000267357 0 0 0 0
495022500 0.03348929 -0.076575912 3.3064e-05 0.000136143 0 0 0 0
504022000 0.032520522 -0.076269784 -3.71e-07 0.000147246 0 0 0 0
513021500 0.030903442 -0.076793704 2.5378e-05 0.000304217 0 0 0 0
522021000 0.030033368 -0.076494992 2.2248e-05 0.000101525 0 0 0 0
531020500 0.029052276 -0.076908584 0.000273907 7.712e-06 0 0 0 0
540020000 0.027979662 -0.076435088 8.8403e-05 0.000145985 0 0 0 0
549019500 0.026893702 -0.076206848 0.000121327 -2.7774e-05 0 0 0 0
558019000 0.025889978 -0.07604832 0.000101307 0.000331572 0 0 0 0
567018500 0.025153728 -0.076371192 0.000111742 -3.8817e-05 0 0 0 0
576018000 0.024248806 -0.076326968 0.000150389 0.000197605 0 0 0 0
585017500 0.023433302 -0.076410592 0.000194034 -3.5515e-05 0 0 0 0
594017000 0.022808272 -0.076667648 -2.4297e-05 4.2196e-05 0 0 0 0
603016500 0.021825064 -0.075511944 -4.4262e-05 -0.00028792 0 0 0 0
612016000 0.020398098 -0.075294288 -3.5822e-05 -6.1964e-05 0 0 0 0
621015500 0.019635432 -0.074725552 2.49e-07 -0.000133079 0 0 0 0
630015000 0.019293528 -0.07483004 0.000153149 -0.000105324 0 0 0 0
639014500 0.018264692 -0.074111248 3.1474e-05 -0.000358148 0 0 0 0
648014000 0.018073918 -0.073814048 -9.2126e-05 -0.000292801 0 0 0 0
657013500 0.0169559 -0.073663216 1.4485e-05 -0.000361173 0 0 0 0
666013000 0.016724584 -0.07328836 -8.6736e-05 -0.000385684 0 0 0 0
675012500 0.016067132 -0.073130096 -0.000150399 -0.000491862 0 0 0 0
684012000 0.01546673 -0.072797792 -0.000430656 -0.000457099 0 0 0 0
693011500 0.015091548 -0.071860344 -0.000175286 -0.000492004 0 0 0 0
702011000 0.014213852 -0.071618456 -0.000694545 -0.000433005 0 0 0 0
711010500 0.01418675 -0.071270624 -0.000554238 -0.000694227 0 0 0 0
720010000 0.013516606 -0.070638392 -0.000601453 -0.000784514 0 0 0 0
729009500 0.01242273 -0.070447088 -0.000912789 -0.000535933 0 0 0 0
738009000 0.012650114 -0.070757176 -0.00102738 -0.000553297 0 0 0 0
747008500 0.01206087 -0.070478136 -0.000882135 -0.000736145 0 0 0 0
756008000 0.01175765 -0.068596112 -0.001104778 -0.000179675 0 0 0 0
765007500 0.011393888 -0.068758656 -0.001099979 -0.000731887 0 0 0 0
774007000 0.01087159 -0.066908508 -0.001217704 0.00019785 0 0 0 0
783006500 0.010236334 -0.070001048 -0.00123793 -0.00051492 0 0 0 0
792006000 0.01014005 -0.068180848 -0.001353297 -0.000353711 0 0 0 0
801005500 0.010770498 -0.066755988 -0.001523586 -0.000389994 0 0 0 0
810005000 0.009456448 -0.06732832 -0.002219821 -0.000368054 0 0 0 0
819004500 0.008694974 -0.067511808 -0.00123407 -0.000533806 0 0 0 0
828004000 0.008956464 -0.065809572 -0.001909781 0.000122613 0 0 0 0
837003500 0.008953178 -0.06599006 -0.002164088 0.000283679 0 0 0 0
846003000 0.008923638 -0.06579692 -0.002230046 0.000384353 0 0 0 0
855002500 0.008124668 -0.067227744 -0.00209465 0.000353973 0 0 0 0
864002000 0.007839746 -0.065738328 -0.002358031 8.2366e-05 0 0 0 0
873001500 0.007376737 -0.066044412 -0.002751822 0.001169794 0 0 0 0
882001000 0.005725588 -0.066145344 -0.002669868 0.000894802 0 0 0 0
891000500 0.005306921 -0.066638172 -0.002339105 0.001015349 0 0 0 0
900000000 0.005681262 -0.065549964 -0.003003569 0.000434701 0 0 0 0
