# HZ S RI R 50
50000 0.084949736 0.001036181
9049500 0.084637864 -0.001854475
18049000 0.084471384 -0.004181855
27048500 0.084242528 -0.006393201
36048000 0.084037712 -0.008528726
45047500 0.083682288 -0.01071874
54047000 0.083308936 -0.012807534
63046500 0.082884448 -0.014898468
72046000 0.082400248 -0.017012614
81045500 0.081895328 -0.019031636
90045000 0.081358648 -0.021047584
99044500 0.08069832 -0.023063486
108044000 0.080027176 -0.025021178
117043500 0.025609096 0.028176342
126043000 0.08252368 -0.030042232
135042500 0.081607968 -0.03195393
144042000 0.080727016 -0.033880268
153041500 0.079767432 -0.03577636
162041000 0.0787 -0.037697592
171040500 0.077619752 -0.039544808
180040000 0.076506 -0.041408472
189039500 0.075299408 -0.043157864
198039000 0.074127832 -0.04488486
207038500 0.072894536 -0.04661176
216038000 0.071619432 -0.048256292
225037500 0.070187448 -0.049833324
234037000 0.068773704 -0.051348276
243036500 0.067405512 -0.0528938
252036000 0.065987268 -0.05433176
261035500 0.064490168 -0.05567936
270035000 0.062970692 -0.05705566
279034500 0.061485068 -0.058325572
288034000 0.059905092 -0.059546148
297033500 0.064314692 -0.064495116
306033000 0.062568164 -0.065104468
315032500 0.061624724 -0.066260756
324032000 0.059881048 -0.067228752
333031500 0.05836924 -0.068190648
342031000 0.056787936 -0.069347672
351030500 0.055381996 -0.069981416
360030000 0.053685484 -0.07096136
369029500 0.05236852 -0.071643944
378029000 0.05056896 -0.072089224
387028500 0.049378008 -0.073100968
396028000 0.047875248 -0.073764696
405027500 0.046379472 -0.074623696
414027000 0.044917884 -0.074719096
423026500 0.043772424 -0.075207272
432026000 0.042264984 -0.075379784
441025500 0.040655716 -0.075627304
450025000 0.039715816 -0.075747544
459024500 0.03805148 -0.075940896
468024000 0.037172292 -0.076211496
477023500 0.0359937 -0.076459672
486023000 0.03479608 -0.0764664
495022500 0.033655876 -0.076757064
504022000 0.0320093 -0.076863384
513021500 0.031194246 -0.076701056
522021000 0.030087774 -0.076941784
531020500 0.02902526 -0.076561232
540020000 0.028038652 -0.076788152
549019500 0.026794478 -0.07623936
558019000 0.026033252 -0.076149544
567018500 0.024799058 -0.07593664
576018000 0.023926616 -0.076439104
585017500 0.023598936 -0.076704592
594017000 0.022725024 -0.076478528
603016500 0.021739166 -0.07510324
612016000 0.020578328 -0.074656416
621015500 0.019688778 -0.07494524
630015000 0.019024142 -0.074729672
639014500 0.018311856 -0.07404608
648014000 0.017801932 -0.073949512
657013500 0.016934742 -0.073336176
666013000 0.016566342 -0.073413752
675012500 0.016166624 -0.073159168
684012000 0.015563538 -0.07209904
693011500 0.014687924 -0.07262924
702011000 0.01398508 -0.071211264
711010500 0.01355618 -0.071214968
720010000 0.013692734 -0.072432512
729009500 0.012768964 -0.0702906
738009000 0.01227428 -0.070412
747008500 0.012105556 -0.069531944
756008000 0.011594294 -0.069707168
765007500 0.011481784 -0.069969728
774007000 0.010893812 -0.068602576
783006500 0.011056012 -0.068749816
792006000 0.010204964 -0.06811048
801005500 0.00972023 -0.067840152
810005000 0.00973951 -0.068343792
819004500 0.009485944 -0.067022644
828004000 0.008861716 -0.067267632
837003500 0.008654114 -0.065959312
846003000 0.008699358 -0.066162304
855002500 0.007854041 -0.067078716
864002000 0.00780196 -0.065570928
873001500 0.005822254 -0.068277072
882001000 0.006162173 -0.064737336
891000500 0.006341468 -0.065641948
900000000 0.005549924 -0.0652513
