# HZ S RI R 50
50000 0.084918416 0.000940526
9049500 0.084628168 -0.001861313
18049000 0.084446064 -0.004166825
27048500 0.084195552 -0.006360159
36048000 0.083972792 -0.00851019
45047500 0.083667408 -0.010675758
54047000 0.083272392 -0.012809478
63046500 0.082870552 -0.01487023
72046000 0.08240852 -0.016946292
81045500 0.081876176 -0.018967568
90045000 0.081306064 -0.021024834
99044500 0.080679464 -0.02304269
108044000 0.080039536 -0.025012026
117043500 0.462750336 -0.095916048
126043000 0.082464192 -0.029999178
135042500 0.081620168 -0.03193568
144042000 0.080698352 -0.033885996
153041500 0.079732352 -0.035752168
162041000 0.078685352 -0.03759726
171040500 0.077609128 -0.039546192
180040000 0.07644708 -0.041356916
189039500 0.075351824 -0.043123052
198039000 0.07413468 -0.04486808
207038500 0.072847288 -0.0466012
216038000 0.07149772 -0.04824118
225037500 0.070161488 -0.04981752
234037000 0.06884984 -0.05134362
243036500 0.06743292 -0.052820732
252036000 0.065992692 -0.05426736
261035500 0.0645345 -0.055687332
270035000 0.063012488 -0.057071328
279034500 0.06150022 -0.058326016
288034000 0.059951644 -0.05956594
297033500 0.06453614 -0.064433992
306033000 0.0626408 -0.06499528
315032500 0.061225852 -0.066240504
324032000 0.059989992 -0.06722816
333031500 0.058565844 -0.068348376
342031000 0.056844632 -0.069349632
351030500 0.055353024 -0.070252088
360030000 0.05388088 -0.07056604
369029500 0.05201986 -0.07148728
378029000 0.050729328 -0.072605512
387028500 0.049120232 -0.072910296
396028000 0.048047676 -0.073619968
405027500 0.04618024 -0.0748336
414027000 0.045055324 -0.074838024
423026500 0.04347532 -0.075010488
432026000 0.042435268 -0.075433896
441025500 0.040904136 -0.076162792
450025000 0.039200728 -0.075854664
459024500 0.038195012 -0.07615228
468024000 0.037052944 -0.076403008
477023500 0.035866344 -0.0767436
486023000 0.034574852 -0.07650376
495022500 0.033345398 -0.076798024
504022000 0.03226 -0.07658016
513021500 0.03083676 -0.07702144
522021000 0.030082154 -0.07721016
531020500 0.029035378 -0.076943064
540020000 0.027462118 -0.076465248
549019500 0.026926884 -0.076523944
558019000 0.02593657 -0.076617
567018500 0.025098552 -0.076581128
576018000 0.024020686 -0.075999752
585017500 0.023459132 -0.076056376
594017000 0.02242882 -0.077051392
603016500 0.021141042 -0.075508112
612016000 0.020538508 -0.074979872
621015500 0.01978432 -0.074737936
630015000 0.01914517 -0.074830784
639014500 0.018405904 -0.074182432
648014000 0.017832702 -0.074214544
657013500 0.01729396 -0.073730768
666013000 0.016075998 -0.073664336
675012500 0.015345594 -0.07303772
684012000 0.014896358 -0.073134472
693011500 0.014668112 -0.072454936
702011000 0.014088732 -0.071661568
711010500 0.013782078 -0.07170552
720010000 0.01320136 -0.071480616
729009500 0.01242554 -0.070902784
738009000 0.011874544 -0.07044872
747008500 0.011701616 -0.0700102
756008000 0.011374004 -0.07016284
765007500 0.01067673 -0.06965264
774007000 0.010831386 -0.068818632
783006500 0.010181308 -0.068744976
792006000 0.009781622 -0.068280416
801005500 0.009517076 -0.067747712
810005000 0.009035626 -0.067617752
819004500 0.009025298 -0.067375584
828004000 0.008325848 -0.067487688
837003500 0.008021439 -0.066382816
846003000 0.008612136 -0.065515956
855002500 0.007854163 -0.065972372
864002000 0.007677186 -0.065135336
873001500 0.006718748 -0.06709096
882001000 0.006094372 -0.065408684
891000500 0.006396704 -0.066525368
900000000 0.00624429 -0.0658464
