# HZ S RI R 50
50000 0.084990104 0.000818973 -1.9489e-05 2.3605e-05 0 0 0 0
9049500 0.08460716 -0.001864159 -1.2808e-05 -1.242e-05 0 0 0 0
18049000 0.084414312 -0.004158835 -2.1305e-05 -1.5779e-05 0 0 0 0
27048500 0.084213688 -0.006375026 -2.4363e-05 -3.8127e-05 0 0 0 0
36048000 0.08395588 -0.008527836 -1.1137e-05 2.0495e-05 0 0 0 0
45047500 0.083654504 -0.010691922 -6.019e-06 -1.217e-06 0 0 0 0
54047000 0.083283656 -0.012802418 -1.2704e-05 -1.5061e-05 0 0 0 0
63046500 0.082886416 -0.014915918 -4.1645e-05 -1.9145e-05 0 0 0 0
72046000 0.082428712 -0.016941094 -4.63e-05 6.008e-06 0 0 0 0
81045500 0.081885208 -0.01901862 -6.8362e-05 -1.2827e-05 0 0 0 0
90045000 0.081350288 -0.021010974 -3.6818e-05 -1.7232e-05 0 0 0 0
99044500 0.080684 -0.023029386 -0.000101396 -1.7749e-05 0 0 0 0
108044000 0.080043752 -0.025007398 -0.000102145 -2.2516e-05 0 0 0 0
117043500 0.072670992 -0.007970807 -0.001521353 -0.002998067 0 0 0 0
126043000 0.082484528 -0.029984198 -3.5812e-05 -1.9273e-05 0 0 0 0
135042500 0.08157836 -0.031969688 -5.5011e-05 -2.2214e-05 0 0 0 0
144042000 0.080696176 -0.033867624 -6.4886e-05 -1.1511e-05 0 0 0 0
153041500 0.079723288 -0.035742164 -7.6073e-05 -4.545e-06 0 0 0 0
162041000 0.078700936 -0.03764372 -7.5133e-05 -2.3942e-05 0 0 0 0
171040500 0.077611776 -0.039543664 -8.5013e-05 -1.8094e-05 0 0 0 0
180040000 0.076472152 -0.041379908 -0.000106987 -1.2058e-05 0 0 0 0
189039500 0.075325472 -0.0431516 -0.000100676 1.1915e-05 0 0 0 0
198039000 0.074101744 -0.044921456 -0.000122585 4e-06 0 0 0 0
207038500 0.072860528 -0.046603428 -0.000150338 1.654e-05 0 0 0 0
216038000 0.071538912 -0.04826826 -0.000168235 1.5809e-05 0 0 0 0
225037500 0.070202864 -0.0498067 -0.000180526 2.0078e-05 0 0 0 0
234037000 0.068855688 -0.0513801 -0.000193775 2.1e-05 0 0 0 0
243036500 0.06740764 -0.052908812 -0.000188696 7.2372e-05 0 0 0 0
252036000 0.065982424 -0.054277488 -0.000222072 7.9827e-05 0 0 0 0
261035500 0.06454154 -0.055768076 -0.000218302 7.3216e-05 0 0 0 0
270035000 0.063037872 -0.057038672 -0.000245993 9.0369e-05 0 0 0 0
279034500 0.061484072 -0.058358064 -0.000273037 0.000107512 0 0 0 0
288034000 0.059985512 -0.059631472 -0.000263257 0.000145935 0 0 0 0
297033500 0.064249224 -0.064478644 -0.000160342 0.000125518 0 0 0 0
306033000 0.062502192 -0.06517618 -7.3495e-05 9.1287e-05 0 0 0 0
315032500 0.061297952 -0.066391224 -0.000103717 6.555e-05 0 0 0 0
324032000 0.059833632 -0.06758336 -9.9461e-05 -7.1112e-05 0 0 0 0
333031500 0.058183804 -0.0680578 -0.000146142 9.735e-06 0 0 0 0
342031000 0.057100816 -0.069053192 -0.00022614 7.3094e-05 0 0 0 0
351030500 0.055344336 -0.070033576 -0.00014347 0.000107059 0 0 0 0
360030000 0.053812692 -0.070649128 -0.000184091 0.000175688 0 0 0 0
369029500 0.052017524 -0.071507224 -0.000184079 0.000323741 0 0 0 0
378029000 0.050438456 -0.072365064 -0.000206052 0.000139455 0 0 0 0
387028500 0.049531536 -0.073054392 -2.1025e-05 8.9695e-05 0 0 0 0
396028000 0.04779028 -0.073424528 -0.00013808 0.000281944 0 0 0 0
405027500 0.04634122 -0.074899208 -0.000184956 0.000240296 0 0 0 0
414027000 0.044787808 -0.07494488 -0.000337771 0.000165607 0 0 0 0
423026500 0.043722764 -0.075131 -0.000114891 0.000175806 0 0 0 0
432026000 0.04227456 -0.07575888 -5.4112e-05 0.000177664 0 0 0 0
441025500 0.04086092 -0.07590128 7.66e-07 0.000532921 0 0 0 0
450025000 0.03939722 -0.07613868 -5.0148e-05 0.000189537 0 0 0 0
459024500 0.038523784 -0.076217992 3.2272e-05 0.000219079 0 0 0 0
468024000 0.037196988 -0.076522336 6.3392e-05 0.000195963 0 0 0 0
477023500 0.035953652 -0.076650008 -2.4078e-05 0.000228096 0 0 0 0
486023000 0.0345861 -0.076632776 9.7025e-05 0.000155376 0 0 0 0
495022500 0.033229188 -0.076632184 -0.000112078 0.00022486 0 0 0 0
504022000 0.032314174 -0.076507952 -7.4505e-05 0.000178555 0 0 0 0
513021500 0.031269476 -0.076560696 0.000282388 0.000260302 0 0 0 0
522021000 0.03018892 -0.076571352 0.000234155 0.000146459 0 0 0 0
531020500 0.028886928 -0.07632356 0.000239263 0.000255095 0 0 0 0
540020000 0.028038434 -0.076395584 8.0251e-05 0.000194992 0 0 0 0
549019500 0.02718409 -0.07658616 0.00022809 6.5528e-05 0 0 0 0
558019000 0.025763588 -0.076534664 0.000176054 0.000281306 0 0 0 0
567018500 0.02536341 -0.07643908 0.000107081 -0.000194039 0 0 0 0
576018000 0.024039752 -0.076575472 0.000446584 -0.000143616 0 0 0 0
585017500 0.023273916 -0.075492584 -0.000107024 -3.7519e-05 0 0 0 0
594017000 0.022862094 -0.076568248 0.000173198 -0.000164588 0 0 0 0
603016500 0.021660778 -0.075530112 9.675e-05 4.087e-06 0 0 0 0
612016000 0.02081127 -0.075171904 6.3373e-05 -0.000221259 0 0 0 0
621015500 0.019867376 -0.074755248 -0.000174603 -0.000144223 0 0 0 0
630015000 0.019295896 -0.07497548 5.1855e-05 -3.1154e-05 0 0 0 0
639014500 0.018173284 -0.074283464 0.000194003 -0.00019915 0 0 0 0
648014000 0.017671048 -0.073656072 -0.000186427 -0.000310664 0 0 0 0
657013500 0.016780002 -0.073880032 -0.000128067 -0.000426842 0 0 0 0
666013000 0.016685246 -0.073717992 -0.000275087 -0.000501759 0 0 0 0
675012500 0.01576456 -0.073296344 -0.00020742 -0.000485787 0 0 0 0
684012000 0.015945128 -0.072726192 -0.000325621 -0.000359118 0 0 0 0
693011500 0.01526867 -0.072016392 -0.000406904 -0.000366227 0 0 0 0
702011000 0.014343246 -0.07175852 -0.000535222 -0.000492686 0 0 0 0
711010500 0.014050768 -0.071693488 -0.000544986 -0.00043083 0 0 0 0
720010000 0.013716662 -0.071622608 -0.000677046 -0.000292878 0 0 0 0
729009500 0.012915354 -0.070920064 -0.000621271 -0.000686929 0 0 0 0
738009000 0.012397502 -0.070587648 -0.00099298 -0.000427167 0 0 0 0
747008500 0.01200898 -0.070226288 -0.000851599 -0.000552448 0 0 0 0
756008000 0.01146536 -0.070165384 -0.001017981 -0.000326773 0 0 0 0
765007500 0.011527296 -0.069829448 -0.001160159 -0.000243801 0 0 0 0
774007000 0.01080856 -0.068776992 -0.001489312 -0.000243915 0 0 0 0
783006500 0.01057379 -0.068624384 -0.001361484 -0.000277022 0 0 0 0
792006000 0.010220352 -0.068575632 -0.00150547 -0.000346572 0 0 0 0
801005500 0.009361816 -0.06728056 -0.001600401 -0.000297933 0 0 0 0
810005000 0.009030438 -0.067656656 -0.001685683 -0.0004621 0 0 0 0
819004500 0.008925448 -0.067125072 -0.001984738 1.2137e-05 0 0 0 0
828004000 0.008815284 -0.067218824 -0.001875482 0.000120977 0 0 0 0
837003500 0.009380314 -0.06680534 -0.002174687 0.00010777 0 0 0 0
846003000 0.008252404 -0.065420776 -0.002201185 0.000251 0 0 0 0
855002500 0.008274813 -0.065694936 -0.002195539 9.5092e-05 0 0 0 0
864002000 0.007393767 -0.065219788 -0.002619128 0.000310753 0 0 0 0
873001500 0.005562446 -0.066960172 -0.003087551 0.0003453 0 0 0 0
882001000 0.006323986 -0.067018912 -0.002492825 0.001022392 0 0 0 0
891000500 0.006929834 -0.065526268 -0.002218103 0.001377154 0 0 0 0
900000000 0.005192881 -0.06593974 -0.002643797 0.001348225 0 0 0 0
