# HZ S RI R 50
50000 0.08497592 0.0008055 -0.000142228 -7.17e-06 0 0 0 0
9049500 0.084609664 -0.001861886 2.6091e-05 -8.1622e-05 0 0 0 0
18049000 0.08445812 -0.004171495 -2.1335e-05 3.685e-05 0 0 0 0
27048500 0.084265504 -0.006390256 1.9971e-05 -2.6366e-05 0 0 0 0
36048000 0.083967984 -0.008554526 -1.5342e-05 -3.6996e-05 0 0 0 0
45047500 0.083677464 -0.010678394 -2.8534e-05 -1.9746e-05 0 0 0 0
54047000 0.083304 -0.012819512 -5.6073e-05 -1.704e-05 0 0 0 0
63046500 0.082882768 -0.014892532 -3.0598e-05 -3.5551e-05 0 0 0 0
72046000 0.082411984 -0.016953344 -2.813e-05 -5.965e-06 0 0 0 0
81045500 0.081865088 -0.019028326 -5.9978e-05 -9.203e-06 0 0 0 0
90045000 0.081314464 -0.021031982 -8.5533e-05 -1.4819e-05 0 0 0 0
99044500 0.080706432 -0.023056408 -8.6143e-05 -1.6752e-05 0 0 0 0
108044000 0.08004196 -0.025014888 -0.000107803 -1.4466e-05 0 0 0 0
117043500 0.122142688 0.006144749 0.000497983 -0.000481167 0 0 0 0
126043000 0.082446544 -0.030013946 -3.4075e-05 -1.1265e-05 0 0 0 0
135042500 0.081629656 -0.031974352 -6.9366e-05 -1.7813e-05 0 0 0 0
144042000 0.08071132 -0.03385088 -7.3847e-05 -1.2226e-05 0 0 0 0
153041500 0.079735 -0.03578504 -6.9026e-05 -9.34e-06 0 0 0 0
162041000 0.078696552 -0.037691592 -7.202e-05 5e-09 0 0 0 0
171040500 0.077634264 -0.039594724 -9.4412e-05 -3.6159e-05 0 0 0 0
180040000 0.076487576 -0.041388944 -9.7844e-05 -1.12e-06 0 0 0 0
189039500 0.075311232 -0.043141336 -0.000119864 -7.284e-06 0 0 0 0
198039000 0.074090592 -0.044914548 -0.000142678 1.7667e-05 0 0 0 0
207038500 0.072832296 -0.046601668 -0.000124875 2.2599e-05 0 0 0 0
216038000 0.071558232 -0.04823056 -0.000151081 3.9746e-05 0 0 0 0
225037500 0.070187776 -0.049816532 -0.000163822 8.684e-06 0 0 0 0
234037000 0.068828624 -0.051411016 -0.00017676 3.7951e-05 0 0 0 0
243036500 0.067464424 -0.052849572 -0.000215754 4.3323e-05 0 0 0 0
252036000 0.06598766 -0.054267576 -0.000223552 7.2626e-05 0 0 0 0
261035500 0.064524248 -0.055685216 -0.000220557 0.000112432 0 0 0 0
270035000 0.063059928 -0.05707258 -0.000233228 0.000101792 0 0 0 0
279034500 0.061428736 -0.058288124 -0.000248486 9.9457e-05 0 0 0 0
288034000 0.0599328 -0.059564452 -0.000270314 0.000143589 0 0 0 0
297033500 0.064019776 -0.064651324 -0.000231676 -2.6017e-05 0 0 0 0
306033000 0.063208028 -0.065150848 -6.2041e-05 0.000185209 0 0 0 0
315032500 0.061402252 -0.0661659 -0.000122122 0.000141969 0 0 0 0
324032000 0.059640268 -0.067521472 -7.076e-05 3.0398e-05 0 0 0 0
333031500 0.058210548 -0.068278608 -0.000123441 2.6287e-05 0 0 0 0
342031000 0.056655636 -0.069167272 -9.6552e-05 8.4334e-05 0 0 0 0
351030500 0.055226976 -0.069952304 3.5176e-05 0.000121776 0 0 0 0
360030000 0.053690636 -0.070872616 -6.9067e-05 0.000144497 0 0 0 0
369029500 0.052453616 -0.071692832 -8.1427e-05 0.000124836 0 0 0 0
378029000 0.050944468 -0.072356592 6.2507e-05 0.000115684 0 0 0 0
387028500 0.049211452 -0.073152536 -0.000141651 0.000266054 0 0 0 0
396028000 0.04786616 -0.073727224 -6.8347e-05 0.000208944 0 0 0 0
405027500 0.04653568 -0.07477568 -1.1079e-05 0.000296181 0 0 0 0
414027000 0.045347528 -0.074523328 -0.000112018 0.000221658 0 0 0 0
423026500 0.043720856 -0.075066352 1.9079e-05 0.000101514 0 0 0 0
432026000 0.042309484 -0.075395584 -3.1928e-05 0.000320127 0 0 0 0
441025500 0.041147728 -0.075659952 -6.1823e-05 0.000346148 0 0 0 0
450025000 0.039546156 -0.07619512 -6.754e-06 0.000101383 0 0 0 0
459024500 0.03833144 -0.076227152 0.0001098 0.000343198 0 0 0 0
468024000 0.037015124 -0.076373368 -1.9521e-05 0.000194747 0 0 0 0
477023500 0.03580902 -0.07623956 -8.8939e-05 2.1051e-05 0 0 0 0
486023000 0.034284724 -0.076454568 4.156e-05 0.000123518 0 0 0 0
495022500 0.033499968 -0.076656928 0.000154867 4.6944e-05 0 0 0 0
504022000 0.03240833 -0.076462672 -1.9456e-05 7.6331e-05 0 0 0 0
513021500 0.031310604 -0.076908072 0.000261521 0.00019182 0 0 0 0
522021000 0.029898202 -0.076881024 4.3506e-05 7.66e-05 0 0 0 0
531020500 0.029151882 -0.076507408 4.3543e-05 0.000129635 0 0 0 0
540020000 0.028059816 -0.076829168 0.000115761 0.000235398 0 0 0 0
549019500 0.02665574 -0.076639056 -1.0298e-05 8.899e-06 0 0 0 0
558019000 0.025610824 -0.076759368 0.000103935 -9.726e-06 0 0 0 0
567018500 0.025334062 -0.076197488 0.0001366 0.000256001 0 0 0 0
576018000 0.024504942 -0.076202424 8.1923e-05 0.000192747 0 0 0 0
585017500 0.02319605 -0.075638784 0.000123246 -0.000108177 0 0 0 0
594017000 0.023124478 -0.07630188 3.251e-05 0.000136262 0 0 0 0
603016500 0.02106938 -0.07522212 0.000115195 -9.2713e-05 0 0 0 0
612016000 0.02088081 -0.074826576 3.81e-07 -0.000128587 0 0 0 0
621015500 0.019762212 -0.074687256 9.4727e-05 -0.000277787 0 0 0 0
630015000 0.019306304 -0.074598504 0.000136106 -0.000214507 0 0 0 0
639014500 0.018049142 -0.074159392 -8.4136e-05 -0.000443207 0 0 0 0
648014000 0.017493956 -0.074056696 -0.00022984 -0.000129337 0 0 0 0
657013500 0.017246676 -0.073441256 5.672e-06 -0.000173963 0 0 0 0
666013000 0.016473122 -0.073690552 -0.000151166 -0.000410498 0 0 0 0
675012500 0.016347322 -0.072949072 -0.000327927 -0.0003548 0 0 0 0
684012000 0.015313122 -0.07292828 -0.000252893 -0.000401214 0 0 0 0
693011500 0.015173392 -0.072095776 -0.000125579 -0.000781607 0 0 0 0
702011000 0.01461823 -0.07241156 -0.000314831 -0.000623091 0 0 0 0
711010500 0.013957618 -0.07118764 -0.000642328 -0.000402823 0 0 0 0
720010000 0.013265632 -0.071302208 -0.000506092 -0.00056561 0 0 0 0
729009500 0.012565242 -0.070522352 -0.000715794 -0.000560592 0 0 0 0
738009000 0.012397984 -0.07100548 -0.000749802 -0.000514251 0 0 0 0
747008500 0.01182685 -0.069640984 -0.000767358 -0.000439308 0 0 0 0
756008000 0.011433992 -0.06899132 -0.001091269 -0.000623931 0 0 0 0
765007500 0.011510558 -0.068987984 -0.001028285 -0.000396238 0 0 0 0
774007000 0.010673786 -0.068888576 -0.001075626 -0.00033786 0 0 0 0
783006500 0.01046798 -0.068638064 -0.00159053 -0.000114604 0 0 0 0
792006000 0.009793228 -0.06846336 -0.001626626 -0.000140138 0 0 0 0
801005500 0.009721012 -0.06832408 -0.001442855 -0.000500854 0 0 0 0
810005000 0.009426648 -0.067765664 -0.001637633 -7.1523e-05 0 0 0 0
819004500 0.00869773 -0.067287928 -0.001807744 -0.000240794 0 0 0 0
828004000 0.008461686 -0.066451928 -0.001849362 -0.000208042 0 0 0 0
837003500 0.008673264 -0.066215532 -0.002125451 2.4977e-05 0 0 0 0
846003000 0.008197281 -0.066490604 -0.002212067 0.000152546 0 0 0 0
855002500 0.008241802 -0.066237816 -0.002443869 0.000271996 0 0 0 0
864002000 0.008331944 -0.065969644 -0.002297018 0.000117797 0 0 0 0
873001500 0.008175594 -0.066580764 -0.001856304 0.00072641 0 0 0 0
882001000 0.00574912 -0.065587864 -0.003283734 0.000687154 0 0 0 0
891000500 0.005912323 -0.064623796 -0.003605335 0.001676132 0 0 0 0
900000000 0.005700588 -0.066320264 -0.003052777 0.000913113 0 0 0 0
