# HZ S RI R 50
50000 0.085019504 0.000950838 -5.335e-06 0.000139281 0 0 0 0
9049500 0.084625752 -0.001901586 -5.2881e-05 -5.1171e-05 0 0 0 0
18049000 0.08444428 -0.004137017 1.2748e-05 5.333e-06 0 0 0 0
27048500 0.084212456 -0.006369452 -4.855e-06 1.87e-05 0 0 0 0
36048000 0.083983408 -0.008554074 -1.2897e-05 -1.615e-06 0 0 0 0
45047500 0.083626216 -0.010696736 -2.7869e-05 -3.1752e-05 0 0 0 0
54047000 0.083286312 -0.01280784 -1.2275e-05 -2.7453e-05 0 0 0 0
63046500 0.082880288 -0.01489435 -2.1009e-05 -2.2864e-05 0 0 0 0
72046000 0.082416272 -0.016965094 -5.925e-05 -5.354e-06 0 0 0 0
81045500 0.081879568 -0.019003014 -6.0068e-05 -6.121e-06 0 0 0 0
90045000 0.081312224 -0.021005488 -4.8337e-05 -5.948e-06 0 0 0 0
99044500 0.08068016 -0.023035356 -8.1017e-05 -3.523e-06 0 0 0 0
108044000 0.080038048 -0.02499997 -9.3032e-05 -1.39e-07 0 0 0 0
117043500 0.070376928 -0.011787586 0.000337042 3.307e-05 0 0 0 0
126043000 0.082465568 -0.029999012 -6.3257e-05 -2.2595e-05 0 0 0 0
135042500 0.081625456 -0.031931006 -5.1818e-05 -5.571e-06 0 0 0 0
144042000 0.080702624 -0.033841472 -8.1628e-05 -3.2516e-05 0 0 0 0
153041500 0.079720744 -0.035771832 -7.5054e-05 -7.885e-06 0 0 0 0
162041000 0.078712296 -0.037681548 -8.5895e-05 -1.372e-05 0 0 0 0
171040500 0.0776386 -0.039553572 -9.5936e-05 -6.813e-06 0 0 0 0
180040000 0.076487576 -0.04138848 -9.7927e-05 -7.422e-06 0 0 0 0
189039500 0.075349016 -0.043126048 -0.000129795 -8.225e-06 0 0 0 0
198039000 0.074166568 -0.044887192 -0.000136193 1.4498e-05 0 0 0 0
207038500 0.072878288 -0.046620864 -0.000153255 -4.907e-06 0 0 0 0
216038000 0.071556872 -0.048232108 -0.000170432 2.5415e-05 0 0 0 0
225037500 0.070223656 -0.049822988 -0.000156573 4.7497e-05 0 0 0 0
234037000 0.068826984 -0.051374836 -0.000183131 5.3717e-05 0 0 0 0
243036500 0.067493104 -0.05283076 -0.000198671 6.6889e-05 0 0 0 0
252036000 0.065984456 -0.054337704 -0.00021435 8.9433e-05 0 0 0 0
261035500 0.064561256 -0.055703704 -0.000221111 8.9899e-05 0 0 0 0
270035000 0.06304034 -0.057060412 -0.000234946 0.000112397 0 0 0 0
279034500 0.061428356 -0.05832678 -0.000249601 0.000122688 0 0 0 0
288034000 0.060003804 -0.05955724 -0.000256338 0.000124703 0 0 0 0
297033500 0.064247236 -0.064749308 -4.9623e-05 -4.5861e-05 0 0 0 0
306033000 0.062832824 -0.065169536 -0.000138494 0.000159143 0 0 0 0
315032500 0.061511064 -0.066186628 -4.4398e-05 9.1018e-05 0 0 0 0
324032000 0.059751024 -0.067303416 -8.2358e-05 -5.0771e-05 0 0 0 0
333031500 0.058521292 -0.068107328 -0.000154048 0.00013533 0 0 0 0
342031000 0.057041532 -0.069199752 1.3195e-05 0.000113342 0 0 0 0
351030500 0.055306104 -0.069833464 -0.000152157 0.000233251 0 0 0 0
360030000 0.053890908 -0.070754688 -0.000190698 0.000217549 0 0 0 0
369029500 0.052306316 -0.071566216 4.036e-06 6.2792e-05 0 0 0 0
378029000 0.050929904 -0.072215792 -0.000211848 5.6499e-05 0 0 0 0
387028500 0.049279608 -0.07313764 -0.000249838 0.000115531 0 0 0 0
396028000 0.04812196 -0.073739944 -7.649e-06 1.8234e-05 0 0 0 0
405027500 0.046339824 -0.074643968 -0.00013861 0.000245499 0 0 0 0
414027000 0.04514162 -0.0749646 4.3581e-05 0.000133173 0 0 0 0
423026500 0.043343832 -0.075311456 -0.00010072 0.000147655 0 0 0 0
432026000 0.042252844 -0.075569632 -0.000166737 0.000322817 0 0 0 0
441025500 0.04083776 -0.07592388 0.000124773 0.000112279 0 0 0 0
450025000 0.03940536 -0.076262752 -5.5445e-05 0.000125537 0 0 0 0
459024500 0.038221732 -0.076153936 -7.4018e-05 0.000149213 0 0 0 0
468024000 0.036858668 -0.076656664 6.587e-06 0.00027296 0 0 0 0
477023500 0.035355944 -0.076665288 0.000121165 0.000131803 0 0 0 0
486023000 0.0343021 -0.076822624 0.00022647 0.000179931 0 0 0 0
495022500 0.033238112 -0.07709352 0.000136211 0.000204265 0 0 0 0
504022000 0.032155454 -0.0767402 9.1242e-05 0.000171864 0 0 0 0
513021500 0.03115025 -0.076843304 0.000227793 0.000184349 0 0 0 0
522021000 0.029852984 -0.07663488 0.00012432 0.000336562 0 0 0 0
531020500 0.02907505 -0.076917264 0.000203962 0.000138031 0 0 0 0
540020000 0.027789158 -0.076648864 0.000328445 0.000134022 0 0 0 0
549019500 0.026845348 -0.076231136 0.000126379 0.000288901 0 0 0 0
558019000 0.026259412 -0.076361072 0.000201412 7.5272e-05 0 0 0 0
567018500 0.025012984 -0.076747368 6.4275e-05 -8.822e-05 0 0 0 0
576018000 0.024137272 -0.076193504 0.000157814 -2.1688e-05 0 0 0 0
585017500 0.023382556 -0.076207232 6.2221e-05 -0.000116604 0 0 0 0
594017000 0.020959186 -0.075072808 -2.4115e-05 1.2568e-05 0 0 0 0
603016500 0.02117837 -0.075339856 0.000209568 -6.7965e-05 0 0 0 0
612016000 0.020403034 -0.07536232 0.000217687 -1.819e-05 0 0 0 0
621015500 0.019791458 -0.075052712 3.191e-06 -1.1013e-05 0 0 0 0
630015000 0.019058758 -0.074837512 -9.654e-06 -0.000205419 0 0 0 0
639014500 0.01826556 -0.0746396 0.000109536 -0.000361267 0 0 0 0
648014000 0.017738852 -0.074013576 -0.00011065 -0.000160604 0 0 0 0
657013500 0.01677771 -0.0740738 -0.00017638 -0.000305646 0 0 0 0
666013000 0.01601452 -0.073720648 -0.000200068 -0.000315186 0 0 0 0
675012500 0.01614981 -0.07352256 -0.00018397 -0.000249069 0 0 0 0
684012000 0.014896544 -0.072519136 -0.000294033 -0.000485693 0 0 0 0
693011500 0.014190848 -0.072555568 -0.000225535 -0.000480516 0 0 0 0
702011000 0.014243426 -0.072338744 -0.000372646 -0.000321659 0 0 0 0
711010500 0.013414858 -0.071468072 -0.000576292 -0.000495128 0 0 0 0
720010000 0.013210266 -0.071541736 -0.000617836 -0.000608903 0 0 0 0
729009500 0.012995132 -0.070760808 -0.000735822 -0.000527953 0 0 0 0
738009000 0.012647962 -0.070652712 -0.000838188 -0.000415496 0 0 0 0
747008500 0.011349926 -0.070479704 -0.001059774 -0.000583184 0 0 0 0
756008000 0.011525386 -0.069988184 -0.000803443 -0.000438126 0 0 0 0
765007500 0.010803058 -0.069505032 -0.001133413 -0.000640765 0 0 0 0
774007000 0.010243062 -0.069461392 -0.001222165 -0.000402594 0 0 0 0
783006500 0.01016105 -0.06848568 -0.001504921 -1.8055e-05 0 0 0 0
792006000 0.009915584 -0.068466512 -0.001174133 -0.000398867 0 0 0 0
801005500 0.00960417 -0.068306976 -0.001575916 -0.000352398 0 0 0 0
810005000 0.008971454 -0.06785252 -0.001568269 -0.000253469 0 0 0 0
819004500 0.008928006 -0.067732528 -0.001753003 -8.2706e-05 0 0 0 0
828004000 0.00900001 -0.066826636 -0.00219531 0.000155728 0 0 0 0
837003500 0.008447824 -0.06678924 -0.002069383 -6.5897e-05 0 0 0 0
846003000 0.008251662 -0.066410436 -0.002199413 0.000300353 0 0 0 0
855002500 0.007390515 -0.066034152 -0.002168547 0.000262658 0 0 0 0
864002000 0.007516099 -0.065733188 -0.002238197 0.000620704 0 0 0 0
873001500 0.007174882 -0.068793912 -0.003205424 0.000452874 0 0 0 0
882001000 0.004863998 -0.067068404 -0.001626799 0.000452942 0 0 0 0
891000500 0.006826601 -0.065127396 -0.002626304 0.00090461 0 0 0 0
900000000 0.006236674 -0.06602674 -0.002606954 0.001649242 0 0 0 0
