# HZ S RI R 50
50000 0.084986992 0.000812865
9049500 0.084657608 -0.001870409
18049000 0.0844818 -0.004152339
27048500 0.084204 -0.006352646
36048000 0.083966944 -0.008523878
45047500 0.083675256 -0.01070289
54047000 0.083270936 -0.012815254
63046500 0.082856352 -0.01492403
72046000 0.08239836 -0.016966812
81045500 0.081850704 -0.019045216
90045000 0.081325928 -0.021031648
99044500 0.080699776 -0.023024046
108044000 0.080083952 -0.02499719
117043500 0.07333752 -0.011322454
126043000 0.082493792 -0.030009092
135042500 0.081592248 -0.031946472
144042000 0.08073936 -0.033880748
153041500 0.07975964 -0.035751084
162041000 0.07874644 -0.03765068
171040500 0.077628544 -0.039556056
180040000 0.076520176 -0.04137544
189039500 0.075331448 -0.043048908
198039000 0.074114392 -0.044897016
207038500 0.07288808 -0.046606148
216038000 0.071575632 -0.048214948
225037500 0.070201944 -0.04983898
234037000 0.068860536 -0.051365772
243036500 0.067440912 -0.052870372
252036000 0.066009684 -0.054285576
261035500 0.064542456 -0.055736428
270035000 0.062996732 -0.057024764
279034500 0.061493424 -0.058299752
288034000 0.059957832 -0.05946844
297033500 0.064135752 -0.06434048
306033000 0.062926428 -0.065164492
315032500 0.061149772 -0.066147232
324032000 0.059984016 -0.067251904
333031500 0.058558264 -0.068255288
342031000 0.056788556 -0.069265784
351030500 0.055419528 -0.070162352
360030000 0.053875292 -0.070691928
369029500 0.05234156 -0.071487304
378029000 0.050589492 -0.072340304
387028500 0.049400984 -0.073085264
396028000 0.04782282 -0.07350896
405027500 0.046633132 -0.075152
414027000 0.044988172 -0.07493764
423026500 0.043922184 -0.074995888
432026000 0.042107912 -0.075487312
441025500 0.04074942 -0.07575576
450025000 0.039378928 -0.075659968
459024500 0.038357604 -0.076089456
468024000 0.037128796 -0.076641136
477023500 0.03577644 -0.07650456
486023000 0.034450092 -0.076266568
495022500 0.033444456 -0.076850504
504022000 0.032338954 -0.076693664
513021500 0.03114687 -0.076207048
522021000 0.03027745 -0.076533992
531020500 0.02876862 -0.076284536
540020000 0.028076284 -0.076879112
549019500 0.026436122 -0.076446712
558019000 0.025994464 -0.076292568
567018500 0.025108576 -0.076243864
576018000 0.024013306 -0.076238192
585017500 0.023451788 -0.076364664
594017000 0.024149554 -0.07747508
603016500 0.021489632 -0.075769264
612016000 0.02040218 -0.074732128
621015500 0.020199314 -0.074642528
630015000 0.01911394 -0.07445472
639014500 0.018661454 -0.074500904
648014000 0.017574836 -0.07361984
657013500 0.017284668 -0.073594192
666013000 0.016666318 -0.073317344
675012500 0.016001984 -0.0730658
684012000 0.01555019 -0.072506928
693011500 0.014878014 -0.072198976
702011000 0.014507906 -0.071930824
711010500 0.01358969 -0.071799704
720010000 0.013444172 -0.070928648
729009500 0.013243124 -0.070408408
738009000 0.01253919 -0.070580688
747008500 0.01234091 -0.070281872
756008000 0.01179778 -0.069483696
765007500 0.011293224 -0.069052016
774007000 0.010408972 -0.069086248
783006500 0.010182314 -0.068570376
792006000 0.010078964 -0.067938584
801005500 0.009340138 -0.067924408
810005000 0.009027978 -0.067821432
819004500 0.008608774 -0.06725388
828004000 0.008996812 -0.067047492
837003500 0.00885688 -0.06642388
846003000 0.008159384 -0.066966124
855002500 0.007973546 -0.065858768
864002000 0.007849382 -0.065535484
873001500 0.006050794 -0.0670738
882001000 0.007153387 -0.065840104
891000500 0.006397018 -0.065995684
900000000 0.005119882 -0.065224536
