# HZ S RI R 50
50000 0.084986992 0.000812865 -0.000131029 -5.9128e-05 0 0 0 0
9049500 0.084657608 -0.001870409 5.1454e-05 5.3554e-05 0 0 0 0
18049000 0.0844818 -0.004152339 4.4172e-05 -1.633e-06 0 0 0 0
27048500 0.084204 -0.006352646 -3.1728e-05 -5.656e-06 0 0 0 0
36048000 0.083966944 -0.008523878 -7.205e-06 -1.8769e-05 0 0 0 0
45047500 0.083675256 -0.01070289 -3.5644e-05 -2.0921e-05 0 0 0 0
54047000 0.083270936 -0.012815254 -3.7031e-05 7.972e-06 0 0 0 0
63046500 0.082856352 -0.01492403 -2.8185e-05 8.605e-06 0 0 0 0
72046000 0.08239836 -0.016966812 -5.5649e-05 -1.168e-05 0 0 0 0
81045500 0.081850704 -0.019045216 -6.0845e-05 -3.8278e-05 0 0 0 0
90045000 0.081325928 -0.021031648 -7.9615e-05 1.3479e-05 0 0 0 0
99044500 0.080699776 -0.023024046 -7.8133e-05 -4.5014e-05 0 0 0 0
108044000 0.080083952 -0.02499719 -8.29e-05 -2.6041e-05 0 0 0 0
117043500 0.07333752 -0.011322454 0.000703408 0.001997209 0 0 0 0
126043000 0.082493792 -0.030009092 -4.8993e-05 3.816e-06 0 0 0 0
135042500 0.081592248 -0.031946472 -7.7529e-05 -2.4778e-05 0 0 0 0
144042000 0.08073936 -0.033880748 -8.3988e-05 -3.2767e-05 0 0 0 0
153041500 0.07975964 -0.035751084 -6.9569e-05 -1.5187e-05 0 0 0 0
162041000 0.07874644 -0.03765068 -6.7642e-05 -3.14e-05 0 0 0 0
171040500 0.077628544 -0.039556056 -8.2903e-05 -9.492e-06 0 0 0 0
180040000 0.076520176 -0.04137544 -0.000103278 -1.835e-05 0 0 0 0
189039500 0.075331448 -0.043048908 -0.000140901 1.5189e-05 0 0 0 0
198039000 0.074114392 -0.044897016 -0.000129012 -4.104e-06 0 0 0 0
207038500 0.07288808 -0.046606148 -0.000150623 -1.315e-05 0 0 0 0
216038000 0.071575632 -0.048214948 -0.000138884 1.4526e-05 0 0 0 0
225037500 0.070201944 -0.04983898 -0.000169705 6.009e-06 0 0 0 0
234037000 0.068860536 -0.051365772 -0.000169925 3.6259e-05 0 0 0 0
243036500 0.067440912 -0.052870372 -0.000194221 6.8715e-05 0 0 0 0
252036000 0.066009684 -0.054285576 -0.00021315 6.8843e-05 0 0 0 0
261035500 0.064542456 -0.055736428 -0.000218205 0.000110181 0 0 0 0
270035000 0.062996732 -0.057024764 -0.00023943 8.2155e-05 0 0 0 0
279034500 0.061493424 -0.058299752 -0.000243567 0.000113428 0 0 0 0
288034000 0.059957832 -0.05946844 -0.000236397 0.000112715 0 0 0 0
297033500 0.064135752 -0.06434048 -0.000162973 6.2752e-05 0 0 0 0
306033000 0.062926428 -0.065164492 -0.000199954 3.6599e-05 0 0 0 0
315032500 0.061149772 -0.066147232 -0.000144742 7.4324e-05 0 0 0 0
324032000 0.059984016 -0.067251904 -9.4345e-05 6.275e-05 0 0 0 0
333031500 0.058558264 -0.068255288 -7.9475e-05 0.000277208 0 0 0 0
342031000 0.056788556 -0.069265784 -7.0073e-05 0.000115727 0 0 0 0
351030500 0.055419528 -0.070162352 -0.000187881 -2.864e-05 0 0 0 0
360030000 0.053875292 -0.070691928 -0.000146819 0.000191553 0 0 0 0
369029500 0.05234156 -0.071487304 -8.6211e-05 0.000150974 0 0 0 0
378029000 0.050589492 -0.072340304 -0.000150174 0.000186685 0 0 0 0
387028500 0.049400984 -0.073085264 -4.5871e-05 0.000220873 0 0 0 0
396028000 0.04782282 -0.07350896 1.1933e-05 0.000130316 0 0 0 0
405027500 0.046633132 -0.075152 -0.000149548 -2.11e-06 0 0 0 0
414027000 0.044988172 -0.07493764 -0.00020051 0.000291272 0 0 0 0
423026500 0.043922184 -0.074995888 -0.000111297 0.000223094 0 0 0 0
432026000 0.042107912 -0.075487312 -5.0063e-05 0.000168712 0 0 0 0
441025500 0.04074942 -0.07575576 8.6465e-05 0.000212607 0 0 0 0
450025000 0.039378928 -0.075659968 -0.000132829 0.000176631 0 0 0 0
459024500 0.038357604 -0.076089456 0.000114099 0.000236174 0 0 0 0
468024000 0.037128796 -0.076641136 0.000155094 0.000345431 0 0 0 0
477023500 0.03577644 -0.07650456 3.1225e-05 9.6422e-05 0 0 0 0
486023000 0.034450092 -0.076266568 3.7208e-05 0.000250312 0 0 0 0
495022500 0.033444456 -0.076850504 8.8333e-05 0.000229575 0 0 0 0
504022000 0.032338954 -0.076693664 0.00013338 0.000109891 0 0 0 0
513021500 0.03114687 -0.076207048 3.2468e-05 6.2445e-05 0 0 0 0
522021000 0.03027745 -0.076533992 0.000123824 0.000193452 0 0 0 0
531020500 0.02876862 -0.076284536 0.000203588 0.00019175 0 0 0 0
540020000 0.028076284 -0.076879112 0.000233482 0.000180352 0 0 0 0
549019500 0.026436122 -0.076446712 0.000228654 0.000137924 0 0 0 0
558019000 0.025994464 -0.076292568 0.00017766 -3.6668e-05 0 0 0 0
567018500 0.025108576 -0.076243864 6.1326e-05 6.699e-06 0 0 0 0
576018000 0.024013306 -0.076238192 0.000281696 0.00029277 0 0 0 0
585017500 0.023451788 -0.076364664 8.5151e-05 -9.6017e-05 0 0 0 0
594017000 0.024149554 -0.07747508 0.000406472 -3.4805e-05 0 0 0 0
603016500 0.021489632 -0.075769264 -6.7372e-05 -0.000195363 0 0 0 0
612016000 0.02040218 -0.074732128 2.537e-05 -0.000155583 0 0 0 0
621015500 0.020199314 -0.074642528 0.000111477 -0.000165055 0 0 0 0
630015000 0.01911394 -0.07445472 7.4519e-05 -0.000178413 0 0 0 0
639014500 0.018661454 -0.074500904 9.6341e-05 -0.000270512 0 0 0 0
648014000 0.017574836 -0.07361984 -0.000130996 -0.000370877 0 0 0 0
657013500 0.017284668 -0.073594192 -0.000171124 -0.000319635 0 0 0 0
666013000 0.016666318 -0.073317344 -0.00026962 -0.000379099 0 0 0 0
675012500 0.016001984 -0.0730658 -0.000246335 -0.00035681 0 0 0 0
684012000 0.01555019 -0.072506928 -0.000513473 -0.000369732 0 0 0 0
693011500 0.014878014 -0.072198976 -0.000245633 -0.000504771 0 0 0 0
702011000 0.014507906 -0.071930824 -0.00051099 -0.000567193 0 0 0 0
711010500 0.01358969 -0.071799704 -0.000442507 -0.000704053 0 0 0 0
720010000 0.013444172 -0.070928648 -0.000565754 -0.000496398 0 0 0 0
729009500 0.013243124 -0.070408408 -0.0006843 -0.000546314 0 0 0 0
738009000 0.01253919 -0.070580688 -0.000887292 -0.000567554 0 0 0 0
747008500 0.01234091 -0.070281872 -0.000881427 -0.000733965 0 0 0 0
756008000 0.01179778 -0.069483696 -0.001319387 -8.6966e-05 0 0 0 0
765007500 0.011293224 -0.069052016 -0.001264949 -0.000470892 0 0 0 0
774007000 0.010408972 -0.069086248 -0.001302452 -0.000388046 0 0 0 0
783006500 0.010182314 -0.068570376 -0.001222881 -0.000297856 0 0 0 0
792006000 0.010078964 -0.067938584 -0.001487855 -0.000278477 0 0 0 0
801005500 0.009340138 -0.067924408 -0.001778726 -0.000107047 0 0 0 0
810005000 0.009027978 -0.067821432 -0.001622246 -0.000291832 0 0 0 0
819004500 0.008608774 -0.06725388 -0.001955816 -0.000162751 0 0 0 0
828004000 0.008996812 -0.067047492 -0.001823368 6.6505e-05 0 0 0 0
837003500 0.00885688 -0.06642388 -0.001959746 -6.4621e-05 0 0 0 0
846003000 0.008159384 -0.066966124 -0.002156002 5.6024e-05 0 0 0 0
855002500 0.007973546 -0.065858768 -0.002370101 0.000247464 0 0 0 0
864002000 0.007849382 -0.065535484 -0.002520601 0.000138047 0 0 0 0
873001500 0.006050794 -0.0670738 -0.002963571 0.000844211 0 0 0 0
882001000 0.007153387 -0.065840104 -0.001361865 0.001053679 0 0 0 0
891000500 0.006397018 -0.065995684 -0.00340096 0.00043891 0 0 0 0
900000000 0.005119882 -0.065224536 -0.003954808 0.001026522 0 0 0 0
