# HZ S RI R 50
50000 0.084962568 0.001036533
9049500 0.084618824 -0.001883382
18049000 0.084470728 -0.004129222
27048500 0.08418376 -0.006399371
36048000 0.083999928 -0.008554096
45047500 0.083685376 -0.010697184
54047000 0.083319632 -0.012824584
63046500 0.082910288 -0.014892232
72046000 0.082431384 -0.016984396
81045500 0.081893912 -0.019031368
90045000 0.081335704 -0.021079548
99044500 0.080719792 -0.023016406
108044000 0.0801208 -0.025078812
117043500 0.073856816 -0.008240141
126043000 0.08251572 -0.030034718
135042500 0.081642968 -0.031985172
144042000 0.080694904 -0.033902768
153041500 0.079738488 -0.03570184
162041000 0.078748744 -0.037710404
171040500 0.077610272 -0.039542908
180040000 0.076493624 -0.04142236
189039500 0.075343432 -0.043114348
198039000 0.074138808 -0.044919516
207038500 0.072839616 -0.046658428
216038000 0.071573768 -0.048218472
225037500 0.070216728 -0.049798308
234037000 0.06883596 -0.051471912
243036500 0.067402928 -0.05280978
252036000 0.065995516 -0.054297528
261035500 0.064478292 -0.055805652
270035000 0.06304542 -0.05690868
279034500 0.061513432 -0.058317524
288034000 0.05996676 -0.059486832
297033500 0.064551568 -0.064692168
306033000 0.062795944 -0.065131864
315032500 0.061582524 -0.066559248
324032000 0.059957276 -0.067143656
333031500 0.058387616 -0.068265584
342031000 0.056920188 -0.069155416
351030500 0.055231996 -0.07027464
360030000 0.053810064 -0.070730192
369029500 0.052268128 -0.071652008
378029000 0.05080426 -0.07213176
387028500 0.049151784 -0.072864992
396028000 0.047726828 -0.073656424
405027500 0.04655346 -0.074778912
414027000 0.045159476 -0.074606408
423026500 0.043428956 -0.074822552
432026000 0.042606968 -0.075368664
441025500 0.04087722 -0.075751416
450025000 0.039413436 -0.076312864
459024500 0.038366848 -0.076302536
468024000 0.037059972 -0.076035968
477023500 0.035985572 -0.076659848
486023000 0.034406324 -0.076594344
495022500 0.033048778 -0.076548232
504022000 0.032156374 -0.076727752
513021500 0.031579472 -0.076674432
522021000 0.029905758 -0.076383296
531020500 0.029127674 -0.076797392
540020000 0.028034436 -0.076617336
549019500 0.027060088 -0.076253608
558019000 0.026062182 -0.076356616
567018500 0.024982886 -0.07605772
576018000 0.024292968 -0.076646072
585017500 0.023954482 -0.07576992
594017000 0.022819338 -0.076747672
603016500 0.021817828 -0.07589344
612016000 0.020465802 -0.074978968
621015500 0.020143358 -0.0748054
630015000 0.01919887 -0.07453628
639014500 0.018213888 -0.0745418
648014000 0.017606164 -0.073910656
657013500 0.016935494 -0.073431296
666013000 0.016485272 -0.073897544
675012500 0.015698818 -0.072630816
684012000 0.015690032 -0.072822584
693011500 0.014825416 -0.072091568
702011000 0.014311742 -0.071528032
711010500 0.01405076 -0.071450256
720010000 0.013508642 -0.070964496
729009500 0.012774934 -0.070352968
738009000 0.01211972 -0.07018208
747008500 0.01151618 -0.070110304
756008000 0.011515516 -0.070011488
765007500 0.010560784 -0.06910352
774007000 0.010358398 -0.06849312
783006500 0.009912356 -0.068482704
792006000 0.009807998 -0.068072096
801005500 0.009554994 -0.068564136
810005000 0.0095849 -0.06658476
819004500 0.008598066 -0.067024744
828004000 0.00852408 -0.06671898
837003500 0.008565268 -0.066256076
846003000 0.008586474 -0.067151288
855002500 0.008049391 -0.065445252
864002000 0.007915708 -0.065225348
873001500 0.007887182 -0.068358152
882001000 0.006025582 -0.066901832
891000500 0.006272971 -0.064784952
900000000 0.006302783 -0.064038068
