# HZ S RI R 50
50000 0.084949736 0.001036181 1.1297e-05 1.2186e-05 0 0 0 0
9049500 0.084637864 -0.001854475 -3.6605e-05 -1.0693e-05 0 0 0 0
18049000 0.084471384 -0.004181855 -1.9772e-05 -6.834e-06 0 0 0 0
27048500 0.084242528 -0.006393201 -2.2304e-05 -2.205e-05 0 0 0 0
36048000 0.084037712 -0.008528726 -9.596e-06 -7.82e-07 0 0 0 0
45047500 0.083682288 -0.01071874 -2.6856e-05 1.2817e-05 0 0 0 0
54047000 0.083308936 -0.012807534 -1.7934e-05 -1.2625e-05 0 0 0 0
63046500 0.082884448 -0.014898468 -5.033e-05 -2.1352e-05 0 0 0 0
72046000 0.082400248 -0.017012614 -4.7571e-05 -1.0155e-05 0 0 0 0
81045500 0.081895328 -0.019031636 -5.5161e-05 3.129e-06 0 0 0 0
90045000 0.081358648 -0.021047584 -8.6079e-05 -7.291e-06 0 0 0 0
99044500 0.08069832 -0.023063486 -6.3436e-05 -4.0407e-05 0 0 0 0
108044000 0.080027176 -0.025021178 -0.000116821 -2.4906e-05 0 0 0 0
117043500 0.025609096 0.028176342 -0.000831434 0.001574839 0 0 0 0
126043000 0.08252368 -0.030042232 -4.6013e-05 -3.5444e-05 0 0 0 0
135042500 0.081607968 -0.03195393 -5.4997e-05 -4.0599e-05 0 0 0 0
144042000 0.080727016 -0.033880268 -6.5607e-05 -2.5372e-05 0 0 0 0
153041500 0.079767432 -0.03577636 -4.5442e-05 2.577e-06 0 0 0 0
162041000 0.0787 -0.037697592 -7.5117e-05 -2.2806e-05 0 0 0 0
171040500 0.077619752 -0.039544808 -8.4188e-05 -5.159e-06 0 0 0 0
180040000 0.076506 -0.041408472 -7.41e-05 -1.0444e-05 0 0 0 0
189039500 0.075299408 -0.043157864 -0.000125929 -7.886e-06 0 0 0 0
198039000 0.074127832 -0.04488486 -0.000139804 1.8518e-05 0 0 0 0
207038500 0.072894536 -0.04661176 -0.000134163 5.824e-06 0 0 0 0
216038000 0.071619432 -0.048256292 -0.000137724 3.1522e-05 0 0 0 0
225037500 0.070187448 -0.049833324 -0.000174304 2.031e-06 0 0 0 0
234037000 0.068773704 -0.051348276 -0.000181098 3.0523e-05 0 0 0 0
243036500 0.067405512 -0.0528938 -0.000197553 5.628e-05 0 0 0 0
252036000 0.065987268 -0.05433176 -0.000234317 5.0646e-05 0 0 0 0
261035500 0.064490168 -0.05567936 -0.000205209 8.7582e-05 0 0 0 0
270035000 0.062970692 -0.05705566 -0.000226673 0.000109041 0 0 0 0
279034500 0.061485068 -0.058325572 -0.000260724 0.000112593 0 0 0 0
288034000 0.059905092 -0.059546148 -0.000263985 0.000128854 0 0 0 0
297033500 0.064314692 -0.064495116 -0.00015951 0.00015911 0 0 0 0
306033000 0.062568164 -0.065104468 -6.1955e-05 -5.8202e-05 0 0 0 0
315032500 0.061624724 -0.066260756 -8.3889e-05 7.4523e-05 0 0 0 0
324032000 0.059881048 -0.067228752 -0.000166157 -4.7388e-05 0 0 0 0
333031500 0.05836924 -0.068190648 -6.6377e-05 5.9067e-05 0 0 0 0
342031000 0.056787936 -0.069347672 -5.6038e-05 0.000162608 0 0 0 0
351030500 0.055381996 -0.069981416 -0.000132267 3.5931e-05 0 0 0 0
360030000 0.053685484 -0.07096136 -0.000120083 0.000132419 0 0 0 0
369029500 0.05236852 -0.071643944 -5.3215e-05 4.641e-05 0 0 0 0
378029000 0.05056896 -0.072089224 -0.000113234 0.000138587 0 0 0 0
387028500 0.049378008 -0.073100968 -0.000105822 0.00019851 0 0 0 0
396028000 0.047875248 -0.073764696 -0.000165267 0.000265558 0 0 0 0
405027500 0.046379472 -0.074623696 -0.000174135 0.000177596 0 0 0 0
414027000 0.044917884 -0.074719096 0.000103671 0.000227947 0 0 0 0
423026500 0.043772424 -0.075207272 -4.6574e-05 0.000115585 0 0 0 0
432026000 0.042264984 -0.075379784 3.834e-06 6.4781e-05 0 0 0 0
441025500 0.040655716 -0.075627304 -0.000147406 0.000269785 0 0 0 0
450025000 0.039715816 -0.075747544 -0.000129944 -0.000101314 0 0 0 0
459024500 0.03805148 -0.075940896 -4.5693e-05 0.000252508 0 0 0 0
468024000 0.037172292 -0.076211496 -0.000118139 0.000273279 0 0 0 0
477023500 0.0359937 -0.076459672 2.9916e-05 0.000183529 0 0 0 0
486023000 0.03479608 -0.0764664 1.909e-06 0.000325455 0 0 0 0
495022500 0.033655876 -0.076757064 0.000125956 0.000309842 0 0 0 0
504022000 0.0320093 -0.076863384 0.000152087 0.000208851 0 0 0 0
513021500 0.031194246 -0.076701056 0.000198861 0.000121427 0 0 0 0
522021000 0.030087774 -0.076941784 5.7578e-05 -0.000103633 0 0 0 0
531020500 0.02902526 -0.076561232 0.000126289 0.000227627 0 0 0 0
540020000 0.028038652 -0.076788152 0.000240838 -5.2819e-05 0 0 0 0
549019500 0.026794478 -0.07623936 0.000233004 5.56e-06 0 0 0 0
558019000 0.026033252 -0.076149544 0.000205576 0.000193469 0 0 0 0
567018500 0.024799058 -0.07593664 -1.9234e-05 9.9878e-05 0 0 0 0
576018000 0.023926616 -0.076439104 0.00013227 1.378e-06 0 0 0 0
585017500 0.023598936 -0.076704592 0.000134612 -7.0883e-05 0 0 0 0
594017000 0.022725024 -0.076478528 2.4059e-05 -0.000370959 0 0 0 0
603016500 0.021739166 -0.07510324 0.000124168 -2.8205e-05 0 0 0 0
612016000 0.020578328 -0.074656416 0.000125673 -8.452e-05 0 0 0 0
621015500 0.019688778 -0.07494524 3.5804e-05 -7.6891e-05 0 0 0 0
630015000 0.019024142 -0.074729672 0.000163877 -0.000205493 0 0 0 0
639014500 0.018311856 -0.07404608 -3.2938e-05 -0.000236841 0 0 0 0
648014000 0.017801932 -0.073949512 8.0713e-05 -5.8934e-05 0 0 0 0
657013500 0.016934742 -0.073336176 -0.000223834 -0.000336033 0 0 0 0
666013000 0.016566342 -0.073413752 -5.137e-06 -0.000381511 0 0 0 0
675012500 0.016166624 -0.073159168 -5.9052e-05 -0.00053771 0 0 0 0
684012000 0.015563538 -0.07209904 -0.000311729 -0.000369727 0 0 0 0
693011500 0.014687924 -0.07262924 -0.000367547 -0.000464752 0 0 0 0
702011000 0.01398508 -0.071211264 -0.000478047 -0.000496962 0 0 0 0
711010500 0.01355618 -0.071214968 -0.000731496 -0.000409713 0 0 0 0
720010000 0.013692734 -0.072432512 -0.00075546 -0.00064343 0 0 0 0
729009500 0.012768964 -0.0702906 -0.000682195 -0.000631208 0 0 0 0
738009000 0.01227428 -0.070412 -0.000740758 -0.000470814 0 0 0 0
747008500 0.012105556 -0.069531944 -0.000939062 -0.000447839 0 0 0 0
756008000 0.011594294 -0.069707168 -0.00116761 -0.000337669 0 0 0 0
765007500 0.011481784 -0.069969728 -0.001241298 -0.000299599 0 0 0 0
774007000 0.010893812 -0.068602576 -0.00136229 -0.000270407 0 0 0 0
783006500 0.011056012 -0.068749816 -0.001274978 -0.000230561 0 0 0 0
792006000 0.010204964 -0.06811048 -0.001281073 -0.000401441 0 0 0 0
801005500 0.00972023 -0.067840152 -0.001695136 -0.000240776 0 0 0 0
810005000 0.00973951 -0.068343792 -0.001694416 -0.000188604 0 0 0 0
819004500 0.009485944 -0.067022644 -0.001568966 -0.000162384 0 0 0 0
828004000 0.008861716 -0.067267632 -0.001751863 -0.000233738 0 0 0 0
837003500 0.008654114 -0.065959312 -0.001913519 -0.000120371 0 0 0 0
846003000 0.008699358 -0.066162304 -0.002466875 0.00029876 0 0 0 0
855002500 0.007854041 -0.067078716 -0.002322893 0.000484246 0 0 0 0
864002000 0.00780196 -0.065570928 -0.002631646 0.000440544 0 0 0 0
873001500 0.005822254 -0.068277072 -0.002741434 0.000869427 0 0 0 0
882001000 0.006162173 -0.064737336 -0.002280281 0.000702215 0 0 0 0
891000500 0.006341468 -0.065641948 -0.001865886 0.000493478 0 0 0 0
900000000 0.005549924 -0.0652513 -0.002911604 0.000451904 0 0 0 0
