# HZ S RI R 50
50000 0.084890848 0.000893619 -1.2171e-05 4.098e-05 0 0 0 0
9049500 0.084613768 -0.001866257 -2.6286e-05 5.953e-06 0 0 0 0
18049000 0.084438 -0.004140562 -2.1002e-05 -1.515e-05 0 0 0 0
27048500 0.084266688 -0.0063507 -1.9576e-05 -2.8088e-05 0 0 0 0
36048000 0.083972496 -0.00852762 -2.8655e-05 5.97e-07 0 0 0 0
45047500 0.083618024 -0.010692598 -1.708e-05 -1.2978e-05 0 0 0 0
54047000 0.083272952 -0.0128339 -4.5765e-05 -1.5252e-05 0 0 0 0
63046500 0.082891088 -0.014908886 -6.185e-06 -2.994e-06 0 0 0 0
72046000 0.082402592 -0.016930056 -5.7518e-05 -2.06e-05 0 0 0 0
81045500 0.081889384 -0.018999812 -4.9634e-05 -2.0905e-05 0 0 0 0
90045000 0.08128204 -0.02100286 -8.131e-05 1.1353e-05 0 0 0 0
99044500 0.080701656 -0.023049028 -0.000100622 -3.6761e-05 0 0 0 0
108044000 0.080044944 -0.02500722 -0.000121882 -4.4617e-05 0 0 0 0
117043500 0.07472956 0.009672178 -0.000461027 -0.003091757 0 0 0 0
126043000 0.082443376 -0.030008656 -4.7689e-05 -2.1736e-05 0 0 0 0
135042500 0.081612016 -0.0319485 -5.2272e-05 4.6e-07 0 0 0 0
144042000 0.080702408 -0.033874156 -7.1249e-05 -1.8282e-05 0 0 0 0
153041500 0.0797386 -0.035756412 -7.4553e-05 -1.8393e-05 0 0 0 0
162041000 0.078706608 -0.037647428 -8.5886e-05 -3.9056e-05 0 0 0 0
171040500 0.077580976 -0.039554172 -9.4501e-05 -2.2555e-05 0 0 0 0
180040000 0.07647376 -0.041328616 -9.2665e-05 2.12e-06 0 0 0 0
189039500 0.075281456 -0.043103404 -9.7041e-05 -1.2368e-05 0 0 0 0
198039000 0.074136872 -0.044912152 -0.000154168 -1.0084e-05 0 0 0 0
207038500 0.07286744 -0.04655202 -0.000119739 -7.163e-06 0 0 0 0
216038000 0.071546208 -0.048248088 -0.000149483 -5.211e-06 0 0 0 0
225037500 0.07023144 -0.049848156 -0.000188388 3.327e-05 0 0 0 0
234037000 0.06878396 -0.051362132 -0.000166209 2.8972e-05 0 0 0 0
243036500 0.067390752 -0.05286228 -0.000196513 4.7551e-05 0 0 0 0
252036000 0.065983696 -0.054287396 -0.000233018 7.2581e-05 0 0 0 0
261035500 0.06451664 -0.055666744 -0.000208534 8.817e-05 0 0 0 0
270035000 0.063009308 -0.057052208 -0.000258251 0.000105875 0 0 0 0
279034500 0.061504744 -0.058384696 -0.000255104 0.0001118 0 0 0 0
288034000 0.059924756 -0.059553512 -0.000275923 0.000131054 0 0 0 0
297033500 0.06429106 -0.064577684 -0.000167651 0.000171771 0 0 0 0
306033000 0.06292052 -0.06514442 -0.000207351 -1.336e-06 0 0 0 0
315032500 0.061075692 -0.066135756 -5.3948e-05 6.1927e-05 0 0 0 0
324032000 0.059790916 -0.0673966 -4.2865e-05 0.000272959 0 0 0 0
333031500 0.058269572 -0.068116048 -0.000151993 0.00020934 0 0 0 0
342031000 0.056993336 -0.069242288 -0.000203363 7.0684e-05 0 0 0 0
351030500 0.055155816 -0.07016392 -6.2058e-05 0.000210556 0 0 0 0
360030000 0.053908244 -0.070892152 -1.6543e-05 0.000144455 0 0 0 0
369029500 0.052122416 -0.07173608 -0.00012729 -4.5918e-05 0 0 0 0
378029000 0.051017876 -0.072480096 -0.000120485 0.000171141 0 0 0 0
387028500 0.049396908 -0.07273892 -0.000239738 9.8761e-05 0 0 0 0
396028000 0.047715148 -0.07363568 -0.000191407 0.000194147 0 0 0 0
405027500 0.046367672 -0.075053632 -2.8464e-05 6.8528e-05 0 0 0 0
414027000 0.045124476 -0.074738248 -0.000131393 0.000238943 0 0 0 0
423026500 0.043737096 -0.075147064 2.2147e-05 0.00023148 0 0 0 0
432026000 0.042181752 -0.075442592 -5.9061e-05 0.00031004 0 0 0 0
441025500 0.04085508 -0.075942944 -0.00010257 0.000191876 0 0 0 0
450025000 0.039226536 -0.07614656 2.637e-06 0.000171066 0 0 0 0
459024500 0.03841306 -0.076393216 -3.911e-06 0.000130485 0 0 0 0
468024000 0.03693332 -0.076578256 -8.6029e-05 0.000341367 0 0 0 0
477023500 0.035577244 -0.076516064 0.000102339 0.000146424 0 0 0 0
486023000 0.034563828 -0.07643932 6.7751e-05 0.000176568 0 0 0 0
495022500 0.033265806 -0.076931376 7.2199e-05 0.000216636 0 0 0 0
504022000 0.032235772 -0.0766632 0.000133379 0.000327611 0 0 0 0
513021500 0.031135476 -0.076812128 7.4651e-05 0.000282027 0 0 0 0
522021000 0.030144202 -0.07669528 0.000225868 2.2431e-05 0 0 0 0
531020500 0.028879744 -0.076291048 8.797e-05 -4.2516e-05 0 0 0 0
540020000 0.027729596 -0.07660764 0.000239518 -1.907e-06 0 0 0 0
549019500 0.026752786 -0.076612856 -3.7475e-05 5.6959e-05 0 0 0 0
558019000 0.025891036 -0.07635156 6.151e-05 -2.6455e-05 0 0 0 0
567018500 0.025049868 -0.076141464 5.7372e-05 0.000110804 0 0 0 0
576018000 0.023954524 -0.075932608 0.000238027 0.00012241 0 0 0 0
585017500 0.023378128 -0.075795392 0.000175164 2.7352e-05 0 0 0 0
594017000 0.022663482 -0.076787736 -4.1259e-05 -6.6943e-05 0 0 0 0
603016500 0.021269114 -0.075583496 0.000165833 -0.000240605 0 0 0 0
612016000 0.020668298 -0.075037536 -0.000113891 -5.9648e-05 0 0 0 0
621015500 0.019902828 -0.074856784 -2.3965e-05 -3.6677e-05 0 0 0 0
630015000 0.018901762 -0.074447728 5.926e-06 -0.000324674 0 0 0 0
639014500 0.018356462 -0.074284664 -1.8314e-05 -8.6436e-05 0 0 0 0
648014000 0.017770948 -0.074053744 6.2217e-05 -0.000135191 0 0 0 0
657013500 0.017040432 -0.074169776 -0.000261225 -0.0001824 0 0 0 0
666013000 0.016029634 -0.073261184 -8.04e-05 -0.000318431 0 0 0 0
675012500 0.01582523 -0.073237016 -0.00024649 -0.000123143 0 0 0 0
684012000 0.015355512 -0.072756472 -0.000248091 -0.000322094 0 0 0 0
693011500 0.01489115 -0.07260248 -0.000209795 -0.000612635 0 0 0 0
702011000 0.013811756 -0.07194324 -0.000535095 -0.000591737 0 0 0 0
711010500 0.013864926 -0.071640944 -0.000494179 -0.000442787 0 0 0 0
720010000 0.013198276 -0.071239272 -0.000610467 -0.000474937 0 0 0 0
729009500 0.012474242 -0.071087864 -0.000675715 -0.000531759 0 0 0 0
738009000 0.012322854 -0.07068856 -0.0008977 -0.000507663 0 0 0 0
747008500 0.011756284 -0.069820864 -0.00098303 -0.000446579 0 0 0 0
756008000 0.0115919 -0.069907056 -0.00125264 -0.00028768 0 0 0 0
765007500 0.010519412 -0.069140848 -0.00108688 -0.000307341 0 0 0 0
774007000 0.010896074 -0.069332192 -0.001266966 -0.000485593 0 0 0 0
783006500 0.010275152 -0.06899792 -0.001245866 -0.000334762 0 0 0 0
792006000 0.009556544 -0.068267776 -0.001532501 -0.000462772 0 0 0 0
801005500 0.009556578 -0.068434672 -0.001766159 -0.000242333 0 0 0 0
810005000 0.009041654 -0.06815452 -0.001638165 -0.000313397 0 0 0 0
819004500 0.008502382 -0.06743164 -0.001760353 -0.000383164 0 0 0 0
828004000 0.008714182 -0.067131312 -0.002015472 8.1325e-05 0 0 0 0
837003500 0.008498788 -0.066513828 -0.002141643 0.000196922 0 0 0 0
846003000 0.008302479 -0.066223776 -0.002180338 7.9307e-05 0 0 0 0
855002500 0.007974449 -0.06594322 -0.001974409 0.000200954 0 0 0 0
864002000 0.007574664 -0.065775944 -0.002489949 0.000520395 0 0 0 0
873001500 0.008761806 -0.06707084 -0.002444282 0.001034127 0 0 0 0
882001000 0.005584999 -0.065268928 -0.003198929 0.001017644 0 0 0 0
891000500 0.006291166 -0.06426882 -0.003122292 0.000409905 0 0 0 0
900000000 0.004516355 -0.064470932 -0.00276254 0.000838352 0 0 0 0
