# HZ S RI R 50
50000 0.08497592 0.0008055
9049500 0.084609664 -0.001861886
18049000 0.08445812 -0.004171495
27048500 0.084265504 -0.006390256
36048000 0.083967984 -0.008554526
45047500 0.083677464 -0.010678394
54047000 0.083304 -0.012819512
63046500 0.082882768 -0.014892532
72046000 0.082411984 -0.016953344
81045500 0.081865088 -0.019028326
90045000 0.081314464 -0.021031982
99044500 0.080706432 -0.023056408
108044000 0.08004196 -0.025014888
117043500 0.122142688 0.006144749
126043000 0.082446544 -0.030013946
135042500 0.081629656 -0.031974352
144042000 0.08071132 -0.03385088
153041500 0.079735 -0.03578504
162041000 0.078696552 -0.037691592
171040500 0.077634264 -0.039594724
180040000 0.076487576 -0.041388944
189039500 0.075311232 -0.043141336
198039000 0.074090592 -0.044914548
207038500 0.072832296 -0.046601668
216038000 0.071558232 -0.04823056
225037500 0.070187776 -0.049816532
234037000 0.068828624 -0.051411016
243036500 0.067464424 -0.052849572
252036000 0.06598766 -0.054267576
261035500 0.064524248 -0.055685216
270035000 0.063059928 -0.05707258
279034500 0.061428736 -0.058288124
288034000 0.0599328 -0.059564452
297033500 0.064019776 -0.064651324
306033000 0.063208028 -0.065150848
315032500 0.061402252 -0.0661659
324032000 0.059640268 -0.067521472
333031500 0.058210548 -0.068278608
342031000 0.056655636 -0.069167272
351030500 0.055226976 -0.069952304
360030000 0.053690636 -0.070872616
369029500 0.052453616 -0.071692832
378029000 0.050944468 -0.072356592
387028500 0.049211452 -0.073152536
396028000 0.04786616 -0.073727224
405027500 0.04653568 -0.07477568
414027000 0.045347528 -0.074523328
423026500 0.043720856 -0.075066352
432026000 0.042309484 -0.075395584
441025500 0.041147728 -0.075659952
450025000 0.039546156 -0.07619512
459024500 0.03833144 -0.076227152
468024000 0.037015124 -0.076373368
477023500 0.03580902 -0.07623956
486023000 0.034284724 -0.076454568
495022500 0.033499968 -0.076656928
504022000 0.03240833 -0.076462672
513021500 0.031310604 -0.076908072
522021000 0.029898202 -0.076881024
531020500 0.029151882 -0.076507408
540020000 0.028059816 -0.076829168
549019500 0.02665574 -0.076639056
558019000 0.025610824 -0.076759368
567018500 0.025334062 -0.076197488
576018000 0.024504942 -0.076202424
585017500 0.02319605 -0.075638784
594017000 0.023124478 -0.07630188
603016500 0.02106938 -0.07522212
612016000 0.02088081 -0.074826576
621015500 0.019762212 -0.074687256
630015000 0.019306304 -0.074598504
639014500 0.018049142 -0.074159392
648014000 0.017493956 -0.074056696
657013500 0.017246676 -0.073441256
666013000 0.016473122 -0.073690552
675012500 0.016347322 -0.072949072
684012000 0.015313122 -0.07292828
693011500 0.015173392 -0.072095776
702011000 0.01461823 -0.07241156
711010500 0.013957618 -0.07118764
720010000 0.013265632 -0.071302208
729009500 0.012565242 -0.070522352
738009000 0.012397984 -0.07100548
747008500 0.01182685 -0.069640984
756008000 0.011433992 -0.06899132
765007500 0.011510558 -0.068987984
774007000 0.010673786 -0.068888576
783006500 0.01046798 -0.068638064
792006000 0.009793228 -0.06846336
801005500 0.009721012 -0.06832408
810005000 0.009426648 -0.067765664
819004500 0.00869773 -0.067287928
828004000 0.008461686 -0.066451928
837003500 0.008673264 -0.066215532
846003000 0.008197281 -0.066490604
855002500 0.008241802 -0.066237816
864002000 0.008331944 -0.065969644
873001500 0.008175594 -0.066580764
882001000 0.00574912 -0.065587864
891000500 0.005912323 -0.064623796
900000000 0.005700588 -0.066320264
