# HZ S RI R 50
50000 0.084937576 0.000893886
9049500 0.08462028 -0.00188023
18049000 0.084453744 -0.004159882
27048500 0.084266504 -0.006387051
36048000 0.083992336 -0.008573072
45047500 0.083676968 -0.010664186
54047000 0.083304232 -0.01282858
63046500 0.082868992 -0.014911568
72046000 0.082399784 -0.01695617
81045500 0.081882576 -0.01897817
90045000 0.081297608 -0.021066022
99044500 0.080675368 -0.023025062
108044000 0.080056392 -0.025007348
117043500 0.126191792 0.071520712
126043000 0.082441448 -0.030003224
135042500 0.08159456 -0.03195022
144042000 0.080721872 -0.033871504
153041500 0.07973948 -0.035771724
162041000 0.07870628 -0.037654432
171040500 0.077630232 -0.03954678
180040000 0.076514432 -0.041405832
189039500 0.075329464 -0.043085384
198039000 0.0741252 -0.044909292
207038500 0.072872088 -0.046603856
216038000 0.071643056 -0.048175656
225037500 0.070226664 -0.049825396
234037000 0.068815368 -0.051357144
243036500 0.067444008 -0.0528924
252036000 0.066016616 -0.054276084
261035500 0.064555236 -0.055734964
270035000 0.06304378 -0.057012412
279034500 0.061539264 -0.058320744
288034000 0.05995888 -0.0595313
297033500 0.06389842 -0.064224616
306033000 0.062526404 -0.06537906
315032500 0.06133038 -0.066141264
324032000 0.059714448 -0.067115888
333031500 0.058375348 -0.068122736
342031000 0.056678532 -0.069235696
351030500 0.055345524 -0.070268336
360030000 0.053824708 -0.070798864
369029500 0.052221656 -0.071456464
378029000 0.050770584 -0.071943536
387028500 0.049096216 -0.072638712
396028000 0.04777506 -0.073449504
405027500 0.0463488 -0.074582208
414027000 0.044928764 -0.075115224
423026500 0.043830972 -0.075168784
432026000 0.042673612 -0.075449384
441025500 0.040862456 -0.07559788
450025000 0.039701928 -0.07606328
459024500 0.038454972 -0.076282896
468024000 0.037224304 -0.076606216
477023500 0.035731572 -0.076619144
486023000 0.034597412 -0.076817904
495022500 0.033534878 -0.076646912
504022000 0.032395438 -0.076683136
513021500 0.031383518 -0.07673332
522021000 0.02953442 -0.076423856
531020500 0.029024882 -0.076403176
540020000 0.028095372 -0.076111392
549019500 0.026822368 -0.076698384
558019000 0.02599782 -0.07645612
567018500 0.025209836 -0.07614456
576018000 0.024417958 -0.075907472
585017500 0.022946324 -0.075478128
594017000 0.022532318 -0.076539472
603016500 0.02189689 -0.075264352
612016000 0.02082002 -0.07501932
621015500 0.02005265 -0.074726744
630015000 0.019443938 -0.074581688
639014500 0.018195622 -0.074339928
648014000 0.017902458 -0.073681048
657013500 0.017379812 -0.07349256
666013000 0.016771062 -0.073164416
675012500 0.015953518 -0.072673632
684012000 0.01557173 -0.072314184
693011500 0.014749348 -0.072215296
702011000 0.014183374 -0.072092952
711010500 0.013955056 -0.071306944
720010000 0.013093284 -0.0710018
729009500 0.013035732 -0.071022512
738009000 0.01219371 -0.070334072
747008500 0.012094576 -0.069729088
756008000 0.011451928 -0.069630104
765007500 0.011061834 -0.069391768
774007000 0.011046516 -0.069389344
783006500 0.009992352 -0.068473376
792006000 0.009660816 -0.06863284
801005500 0.01012583 -0.068296808
810005000 0.009441226 -0.068079328
819004500 0.009389664 -0.067279544
828004000 0.008786516 -0.066876704
837003500 0.008282328 -0.066938012
846003000 0.008445272 -0.066116684
855002500 0.007583851 -0.06572392
864002000 0.007989462 -0.065317452
873001500 0.008165853 -0.06904324
882001000 0.005783022 -0.06563238
891000500 0.00564332 -0.064244108
900000000 0.005970355 -0.065473116
